Time Stamp,ID,Extended,Dir,Bus,LEN,D1,D2,D3,D4,D5,D6,D7,D8
74903903,000001D6,false,Rx,0,2,FF,FF,00,00,00,00,00,00,
74904622,000001EA,false,Rx,0,2,F0,FF,00,00,00,00,00,00,
74905016,00000000,false,Rx,0,8,00,00,02,00,00,00,00,01,
74905194,00000000,false,Rx,0,8,00,00,00,00,00,00,00,00,
74905374,000001EE,false,Rx,0,2,00,FF,00,00,00,00,00,00,
74905508,000002A6,false,Rx,0,2,FF,FF,00,00,00,00,00,00,
74907486,00000480,false,Rx,0,8,00,01,FF,FF,FF,FF,FF,FF,
74908680,000004E0,false,Rx,0,8,60,01,FF,FF,FF,FF,FF,FF,
74912647,0000026E,false,Rx,0,8,00,00,00,50,FF,FF,FF,FF,
74913722,00000130,false,Rx,0,5,00,02,34,3F,66,00,00,00,
74916718,000004F0,false,Rx,0,8,70,01,FF,FF,FF,FF,FF,FF,
74917714,000004C0,false,Rx,0,8,40,01,FF,FF,FF,FF,FF,FF,
74921710,000000FD,false,Rx,0,3,FF,FF,FF,00,00,00,00,00,
74922708,000000FC,false,Rx,0,3,FF,FF,FF,00,00,00,00,00,
74924707,000004F2,false,Rx,0,8,72,01,FF,FF,FF,FF,FF,FF,
74925706,000000FA,false,Rx,0,3,FF,00,FF,00,00,00,00,00,
74926706,000004C3,false,Rx,0,8,43,01,FF,FF,FF,FF,FF,FF,
74927704,000001D6,false,Rx,0,2,FF,FF,00,00,00,00,00,00,
74928628,000001EA,false,Rx,0,2,F0,FF,00,00,00,00,00,00,
74929701,000001EE,false,Rx,0,2,00,FF,00,00,00,00,00,00,
74929719,000002A6,false,Rx,0,2,00,FF,00,00,00,00,00,00,
74930625,000003B6,false,Rx,0,2,37,FD,00,00,00,00,00,00,
74931624,000000E2,false,Rx,0,8,FF,FF,FF,FC,FF,FF,FF,10,
74944609,000004F8,false,Rx,0,8,78,01,FF,FF,FF,FF,FF,FF,
74948679,00000330,false,Rx,0,8,4A,AA,03,0A,FF,FF,70,03,
74949678,000001FE,false,Rx,0,2,FF,00,00,00,00,00,00,00,
74950676,000002CA,false,Rx,0,2,79,FF,00,00,00,00,00,00,
74950693,000001D6,false,Rx,0,2,C0,00,00,00,00,00,00,00,
74951675,000002F8,false,Rx,0,8,FD,FD,FD,1C,6F,E6,07,FC,
74952674,000001EA,false,Rx,0,2,F0,FF,00,00,00,00,00,00,
74953677,000001EE,false,Rx,0,2,00,FF,00,00,00,00,00,00,
74954675,000002A6,false,Rx,0,2,00,FF,00,00,00,00,00,00,
74955672,000003BE,false,Rx,0,2,00,F0,00,00,00,00,00,00,
74957671,000002C0,false,Rx,0,3,3F,81,16,00,00,00,00,00,
74958669,000003B6,false,Rx,0,2,37,FD,00,00,00,00,00,00,
74958688,000000FA,false,Rx,0,3,FF,00,FF,00,00,00,00,00,
74959667,0000026C,false,Rx,0,3,FC,FF,FF,00,00,00,00,00,
74960667,000000EA,false,Rx,0,8,8F,FF,E0,FD,FF,FF,FF,2B,
74970657,000001D6,false,Rx,0,2,C0,00,00,00,00,00,00,00,
74971655,000001EA,false,Rx,0,2,F0,FF,00,00,00,00,00,00,
74972653,000001EE,false,Rx,0,2,00,FF,00,00,00,00,00,00,
74972673,000002A6,false,Rx,0,2,00,FC,00,00,00,00,00,00,
74974652,00000480,false,Rx,0,8,40,02,FF,FF,FF,FF,FF,FF,
74974671,000003B8,false,Rx,0,2,37,FD,00,00,00,00,00,00,
74976644,00000580,false,Rx,0,8,04,11,04,01,05,FF,02,F0,
74978642,000004C1,false,Rx,0,8,41,01,FE,FF,FF,FF,FF,FF,
74984638,000002F6,false,Rx,0,2,F5,FD,00,00,00,00,00,00,
74984656,000003BD,false,Rx,0,2,FD,FF,00,00,00,00,00,00,
74988633,00000580,false,Rx,0,8,04,11,04,01,05,FF,00,F0,
74996625,000000A8,false,Rx,0,8,FF,0F,80,0F,80,FF,FF,FF,
74997620,00000000,false,Rx,0,8,00,00,04,00,00,00,00,01,
74998620,00000000,false,Rx,0,8,00,00,00,00,00,00,00,00,
74998639,000000AA,false,Rx,0,8,FF,0F,80,FF,FF,FF,FF,FF,
75000617,00000580,false,Rx,0,8,04,11,04,01,05,FF,00,F0,
75001615,000004E4,false,Rx,0,8,64,01,FF,FF,FF,FF,FF,FF,
75005609,000004ED,false,Rx,0,8,6D,01,FF,FF,FF,FF,FF,FF,
75007611,000000CE,false,Rx,0,8,00,80,00,80,00,80,00,80,
75008533,000004EE,false,Rx,0,8,6E,01,FF,FF,FF,FF,FF,FF,
75009605,000003B6,false,Rx,0,2,37,FD,00,00,00,00,00,00,
75010605,00000336,false,Rx,0,7,00,00,00,FE,FF,FE,FF,00,
75010622,000000FA,false,Rx,0,3,FF,00,FF,00,00,00,00,00,
75012549,000001A0,false,Rx,0,8,FF,FF,00,08,80,00,F8,FF,
75013529,00000130,false,Rx,0,5,00,02,34,3F,77,00,00,00,
75016523,000004E5,false,Rx,0,8,65,01,FF,FF,FF,FF,FF,FF,
75017525,000003B8,false,Rx,0,2,37,FD,00,00,00,00,00,00,
75018524,000000E2,false,Rx,0,8,FF,FF,E7,FC,FF,FF,FF,10,
75020521,000004E7,false,Rx,0,8,67,01,FF,FF,FF,FF,FF,FF,
75021591,000001B5,false,Rx,0,6,FF,FF,02,F0,0F,FF,00,00,
75021609,000000FD,false,Rx,0,3,FF,FF,FF,00,00,00,00,00,
75022591,000000FC,false,Rx,0,3,FF,FF,FF,00,00,00,00,00,
75024536,000004C4,false,Rx,0,8,44,01,FF,FF,FF,FF,FF,FF,
75027514,000004C5,false,Rx,0,8,45,01,FF,FF,FF,FF,FF,FF,
75036576,000002FC,false,Rx,0,7,80,01,05,FF,FF,FF,FF,00,
75043568,000001D0,false,Rx,0,8,44,FF,40,C6,00,00,3D,00,
75048562,000000C0,false,Rx,0,2,F0,FF,00,00,00,00,00,00,
75055554,000005A9,false,Rx,0,8,40,2A,00,14,FF,FF,FF,FF,
75057552,000004C0,false,Rx,0,8,41,02,FF,FF,FF,FF,FF,FF,
75058552,000000EA,false,Rx,0,8,8F,FF,E0,FD,FF,FF,FF,2B,
75059547,0000026C,false,Rx,0,3,FC,FF,FF,00,00,00,00,00,
75061546,000003BE,false,Rx,0,2,B3,F0,00,00,00,00,00,00,
75062545,00000304,false,Rx,0,2,E3,FF,00,00,00,00,00,00,
75063544,000001D2,false,Rx,0,6,F0,0F,FF,0C,F0,FF,00,00,
75065540,000005A9,false,Rx,0,8,40,EC,00,14,FF,FF,FF,FF,
75067539,0000019E,false,Rx,0,8,00,FA,20,FC,F0,63,FF,0C,
75068536,000001A0,false,Rx,0,8,FF,8F,00,08,80,00,28,E1,
75069535,000001B5,false,Rx,0,6,FF,FF,02,F0,0F,FF,00,00,
75070535,000001A6,false,Rx,0,8,00,00,00,00,00,00,14,F0,
75071537,0000031D,false,Rx,0,2,FF,FF,00,00,00,00,00,00,
75072459,000003B8,false,Rx,0,2,37,FD,00,00,00,00,00,00,
75074457,000004F3,false,Rx,0,8,73,01,FF,FF,FF,FF,FF,FF,
75075481,000005A9,false,Rx,0,8,40,ED,00,14,FF,FF,FF,FF,
75079524,000001B5,false,Rx,0,6,FF,FF,02,F0,0F,FF,00,00,
75083518,000002CA,false,Rx,0,2,79,FF,00,00,00,00,00,00,
75085517,000005A3,false,Rx,0,8,01,03,80,FF,FF,FF,FF,FF,
75086516,000005A9,false,Rx,0,8,40,4A,00,14,FF,FF,FF,FF,
75091510,00000380,false,Rx,0,7,42,31,31,36,38,30,36,00,
75093510,000003B3,false,Rx,0,6,F1,FF,FF,7F,00,F1,00,00,
75095504,000005A9,false,Rx,0,8,40,47,00,14,FF,FF,FF,FF,
75097506,000000A8,false,Rx,0,8,C0,09,00,00,00,0F,00,00,
75098506,000000AA,false,Rx,0,8,B7,09,00,00,FF,FF,04,00,
75100499,000000BE,false,Rx,0,5,5F,FF,FF,FF,FF,00,00,00,
75102499,000000C4,false,Rx,0,7,00,80,FD,00,80,FF,F6,00,
75103497,000003B4,false,Rx,0,8,FF,FF,09,FF,FF,FF,FF,FF,
75105497,000000C8,false,Rx,0,6,00,80,FD,00,80,BF,00,00,
75106493,000005A9,false,Rx,0,8,40,24,00,14,FF,FF,FF,FF,
75107497,000000CE,false,Rx,0,8,00,80,00,80,00,80,00,80,
75108491,0000019E,false,Rx,0,8,00,FA,40,FC,F0,63,FF,2C,
75110488,000001A0,false,Rx,0,8,FF,8F,00,08,80,00,48,01,
75112488,000002EA,false,Rx,0,8,FF,00,64,FF,23,FF,FF,FF,
75113485,00000130,false,Rx,0,5,00,02,34,3F,88,00,00,00,
75113506,000003DF,false,Rx,0,3,5F,B9,FC,00,00,00,00,00,
75114481,00000242,false,Rx,0,3,3F,FC,FF,00,00,00,00,00,
75115481,000005A9,false,Rx,0,8,40,B8,00,14,FF,FF,FF,FF,
75117481,000002E6,false,Rx,0,8,00,00,64,32,20,FF,FF,FF,
75117498,000002F0,false,Rx,0,2,34,F0,00,00,00,00,00,00,
75121475,000000FD,false,Rx,0,3,FF,FF,FF,00,00,00,00,00,
75122476,000000FC,false,Rx,0,3,FF,FF,FF,00,00,00,00,00,
75123474,00000592,false,Rx,0,8,40,22,00,31,FF,FF,FF,FF,
75126470,000005A9,false,Rx,0,8,40,D7,00,94,FF,FF,FF,FF,
75135461,000002FA,false,Rx,0,5,FF,07,FF,FF,FF,00,00,00,
75136458,000005A9,false,Rx,0,8,40,23,00,14,FF,FF,FF,FF,
75144448,000001D0,false,Rx,0,8,44,FF,41,C6,00,00,3D,00,
75146445,000005A9,false,Rx,0,8,40,18,00,14,FF,FF,FF,FF,
75153435,000004C1,false,Rx,0,8,44,12,FE,FF,FF,FF,FF,FF,
75156435,000005A9,false,Rx,0,8,40,32,00,14,FF,FF,FF,FF,
75158432,000000EA,false,Rx,0,8,8F,FF,E0,FD,FF,FF,FF,2B,
75159431,000004C3,false,Rx,0,8,44,01,FF,FF,FF,FF,FF,FF,
75165422,00000330,false,Rx,0,8,4A,AA,03,0A,FF,FF,80,05,
75166422,000005A9,false,Rx,0,8,40,3F,00,14,FF,FF,FF,FF,
75168421,000001A6,false,Rx,0,8,00,00,00,00,00,00,A4,F1,
75170416,000001D6,false,Rx,0,2,C0,00,00,00,00,00,00,00,
75171416,000001EA,false,Rx,0,2,F0,FF,00,00,00,00,00,00,
75171434,000001EE,false,Rx,0,2,00,FF,00,00,00,00,00,00,
75172415,000002A6,false,Rx,0,2,00,FC,00,00,00,00,00,00,
75176411,000005A9,false,Rx,0,8,40,48,01,14,FF,FF,FF,FF,
75190395,000005ED,false,Rx,0,8,01,03,88,00,00,00,00,00,
75191395,000002F4,false,Rx,0,4,E8,FF,1E,F8,00,00,00,00,
75192391,00000388,false,Rx,0,7,04,01,68,15,C2,02,2C,00,
75193389,000005EE,false,Rx,0,8,01,03,88,00,00,00,00,00,
75196386,000000A8,false,Rx,0,8,BB,04,00,00,00,0F,00,00,
75198386,000000AA,false,Rx,0,8,B2,04,00,00,FF,FF,04,00,
75201381,00000388,false,Rx,0,7,04,01,68,15,C2,02,2C,00,
75206376,000000CE,false,Rx,0,8,00,80,00,80,00,80,00,80,
75210370,000001A0,false,Rx,0,8,FF,8F,00,08,80,00,98,52,
75211369,000005E0,false,Rx,0,8,10,FF,FF,02,00,FF,FF,FF,
75212368,00000130,false,Rx,0,5,00,02,34,3F,99,00,00,00,
75218361,000000E2,false,Rx,0,8,FF,FF,E7,FC,FF,FF,FF,10,
75221360,000000FD,false,Rx,0,3,FF,FF,FF,00,00,00,00,00,
75222358,000000FC,false,Rx,0,3,FF,FF,FF,00,00,00,00,00,
75233344,000002CA,false,Rx,0,2,79,FF,00,00,00,00,00,00,
75244330,000001D0,false,Rx,0,8,44,FF,42,C6,00,00,3D,00,
75245329,000004C4,false,Rx,0,8,45,12,FF,FF,FF,FF,FF,FF,
75248325,000000C0,false,Rx,0,2,F1,FF,00,00,00,00,00,00,
75258318,000000EA,false,Rx,0,8,8F,FF,E0,FD,FF,FF,FF,2B,
75261310,00000598,false,Rx,0,8,40,F8,00,15,FF,FF,FF,FF,
75267303,000001A6,false,Rx,0,8,00,00,00,00,00,00,34,F3,
75270302,000001D6,false,Rx,0,2,C0,00,00,00,00,00,00,00,
75271262,000001EA,false,Rx,0,2,F0,FF,00,00,00,00,00,00,
75272297,000002EA,false,Rx,0,8,FF,00,64,FF,23,FF,FF,FF,
75272315,000001EE,false,Rx,0,2,00,FF,00,00,00,00,00,00,
75273297,00000242,false,Rx,0,3,3F,FC,FF,00,00,00,00,00,
75274296,000002A6,false,Rx,0,2,00,FC,00,00,00,00,00,00,
75275294,000002E6,false,Rx,0,8,00,00,64,32,20,FF,FF,FF,
75276292,000002F0,false,Rx,0,2,34,F0,00,00,00,00,00,00,
75278294,000001D2,false,Rx,0,6,F0,0F,FF,1C,F0,FF,00,00,
75291244,000005F3,false,Rx,0,8,01,02,3A,FF,FF,FF,FF,FF,
75296271,000000A8,false,Rx,0,8,C8,0E,00,00,00,0F,03,00,
75298267,000000AA,false,Rx,0,8,BC,0E,00,00,FF,FF,04,00,
75300265,000000BE,false,Rx,0,5,0F,FF,FF,FF,FF,00,00,00,
75301265,0000023A,false,Rx,0,4,11,FF,FF,FF,00,00,00,00,
75302266,000000C4,false,Rx,0,7,00,80,FD,00,80,FF,F6,00,
75304259,000000C8,false,Rx,0,6,00,80,FD,00,80,D2,00,00,
75306256,000000CE,false,Rx,0,8,00,80,00,80,00,80,00,80,
75308257,0000019E,false,Rx,0,8,00,FA,E0,FC,F0,63,FF,CC,
75310252,000001A0,false,Rx,0,8,FF,8F,00,08,80,00,E8,A2,
75312251,00000130,false,Rx,0,5,00,02,34,3F,BA,00,00,00,
75318243,000003DF,false,Rx,0,3,9F,B9,FC,00,00,00,00,00,
75321238,000000FD,false,Rx,0,3,FF,FF,FF,00,00,00,00,00,
75322240,000000FC,false,Rx,0,3,FF,FF,FF,00,00,00,00,00,
75336222,000004C5,false,Rx,0,8,73,12,FF,FF,FF,FF,FF,FF,
75340218,000004E7,false,Rx,0,8,73,11,FF,FF,FF,FF,FF,FF,
75344211,000004F2,false,Rx,0,8,73,01,FF,FF,FF,FF,FF,FF,
75345214,000001D0,false,Rx,0,8,44,FF,43,C6,00,00,3D,00,
75347209,00000596,false,Rx,0,8,01,03,80,FF,FF,FF,FF,FF,
75348209,000004E0,false,Rx,0,8,64,11,FF,FF,FF,FF,FF,FF,
75350205,000004E4,false,Rx,0,8,65,11,FF,FF,FF,FF,FF,FF,
75351206,000002F4,false,Rx,0,4,E8,FF,1E,F8,00,00,00,00,
75352205,000004E5,false,Rx,0,8,67,01,FF,FF,FF,FF,FF,FF,
75353203,00000380,false,Rx,0,7,42,31,31,36,38,30,36,00,
75354201,000004ED,false,Rx,0,8,6E,11,FF,FF,FF,FF,FF,FF,
75355157,000001FC,false,Rx,0,2,A1,02,00,00,00,00,00,00,
75356198,000004EE,false,Rx,0,8,72,11,FF,FF,FF,FF,FF,FF,
75357198,000004F0,false,Rx,0,8,72,01,FF,FF,FF,FF,FF,FF,
75359196,000000EA,false,Rx,0,8,8F,FF,E0,FD,FF,FF,FF,2B,
75360196,000005E0,false,Rx,0,8,10,FF,FF,02,00,FF,FF,FF,
75362194,000005E5,false,Rx,0,8,01,03,88,FF,FF,FF,FF,FF,
75364189,0000021A,false,Rx,0,3,00,20,A4,00,00,00,00,00,
75365188,00000202,false,Rx,0,2,FE,FF,00,00,00,00,00,00,
75369185,000001A6,false,Rx,0,8,00,00,00,00,00,00,C4,F4,
75371182,00000388,false,Rx,0,7,04,01,68,15,C2,02,2C,00,
75378176,000002EA,false,Rx,0,8,FF,00,64,FF,23,FF,FF,FF,
75380172,000002E6,false,Rx,0,8,00,00,64,32,20,FF,FF,FF,
75383166,000002CA,false,Rx,0,2,79,FF,00,00,00,00,00,00,
75396152,000000A8,false,Rx,0,8,C3,09,00,00,00,0F,03,00,
75398149,000000AA,false,Rx,0,8,B7,09,00,00,FF,FF,04,00,
75406141,000000CE,false,Rx,0,8,00,00,00,00,00,00,00,00,
75410135,000001A0,false,Rx,0,8,00,80,00,08,80,00,48,F2,
75412133,00000130,false,Rx,0,5,00,02,34,3F,CB,00,00,00,
75421123,000000FD,false,Rx,0,3,FF,FF,FF,00,00,00,00,00,
75422125,000000FC,false,Rx,0,3,FF,FF,FF,00,00,00,00,00,
75427118,000004F3,false,Rx,0,8,41,12,FF,01,FF,FF,FF,FF,
75431114,00000242,false,Rx,0,3,3F,FC,FF,00,00,00,00,00,
75432112,00000480,false,Rx,0,8,40,01,FF,FF,FF,FF,FF,FF,
75433109,000002F0,false,Rx,0,2,34,F0,00,00,00,00,00,00,
75436106,000004C0,false,Rx,0,8,41,01,FF,FF,FF,FF,FF,FF,
75439103,000004F8,false,Rx,0,8,00,11,FF,FF,FF,FF,FF,FF,
75445099,000001D0,false,Rx,0,8,44,FF,44,C6,00,00,3D,00,
75448095,000000C0,false,Rx,0,2,F2,FF,00,00,00,00,00,00,
75453087,0000033A,false,Rx,0,5,18,45,81,FD,78,00,00,00,
75458084,000000EA,false,Rx,0,8,8F,FF,E0,FD,FF,FF,FF,2B,
75468073,000001A6,false,Rx,0,8,00,00,00,00,00,00,54,F6,
75477062,000001D2,false,Rx,0,6,F0,0F,FF,2C,F0,FF,00,00,
75496044,000000A8,false,Rx,0,8,BE,04,00,00,00,0F,03,00,
75498039,000000AA,false,Rx,0,8,B2,04,00,00,FF,FF,04,00,
75500040,000000BE,false,Rx,0,5,AF,FF,FF,FF,FF,00,00,00,
75502039,000000C4,false,Rx,0,7,00,80,FD,00,80,FF,F6,00,
75504032,000000C8,false,Rx,0,6,00,80,FD,00,80,F2,00,00,
75506030,000000CE,false,Rx,0,8,00,00,00,00,00,00,00,00,
75508029,0000019E,false,Rx,0,8,00,FA,90,FC,F0,63,FF,7C,
75510028,000005E0,false,Rx,0,8,10,FF,FF,02,00,FF,FF,FF,
75511057,000001A0,false,Rx,0,8,00,80,00,08,80,00,98,43,
75512026,00000130,false,Rx,0,5,00,02,34,3F,DC,00,00,00,
75513023,000002F4,false,Rx,0,4,E8,FF,1E,F8,00,00,00,00,
75515019,000004C1,false,Rx,0,8,43,12,FE,FF,FF,FF,FF,FF,
75518018,000003DF,false,Rx,0,3,9F,B9,FC,00,00,00,00,00,
75520018,000001B5,false,Rx,0,6,FF,FF,02,00,08,FF,00,00,
75521017,000000FD,false,Rx,0,3,FF,FF,FF,00,00,00,00,00,
75522015,000000FC,false,Rx,0,3,FF,FF,FF,00,00,00,00,00,
75531002,000002EA,false,Rx,0,8,FF,00,64,FF,23,FF,FF,FF,
75532005,000002E6,false,Rx,0,8,00,00,64,32,20,FF,FF,FF,
75544992,000001D0,false,Rx,0,8,44,FF,45,C6,00,00,3D,00,
75555975,000001FC,false,Rx,0,2,A2,02,00,00,00,00,00,00,
75557974,000000EA,false,Rx,0,8,8F,FF,E0,FD,FF,FF,FF,2B,
75567963,000001A6,false,Rx,0,8,00,00,00,00,00,00,E4,F7,
75595934,000000A8,false,Rx,0,8,C8,0E,00,00,00,0F,03,00,
75597932,000000AA,false,Rx,0,8,BC,0E,00,00,FF,FF,04,00,
75599931,000004C3,false,Rx,0,8,44,02,FF,FF,FF,FF,FF,FF,
75605924,000000CE,false,Rx,0,8,00,00,00,00,00,00,00,00,
75609918,000001A0,false,Rx,0,8,00,80,00,08,80,00,E8,93,
75610917,00000130,false,Rx,0,5,00,02,34,3F,ED,00,00,00,
75612916,0000033A,false,Rx,0,5,18,45,81,FD,78,00,00,00,
75618908,000004E2,false,Rx,0,8,62,01,FF,FF,FF,FF,FF,FF,
75620909,000000FD,false,Rx,0,3,FF,FF,FF,00,00,00,00,00,
75621903,000000FC,false,Rx,0,3,FF,FF,FF,00,00,00,00,00,
75644881,000001D0,false,Rx,0,8,44,FF,46,C6,00,00,3D,00,
75647881,000000C0,false,Rx,0,2,F3,FF,00,00,00,00,00,00,
75657864,000000EA,false,Rx,0,8,8F,FF,E0,FD,FF,FF,FF,2B,
75667855,000001A6,false,Rx,0,8,00,00,00,00,00,00,74,F9,
75674847,000001D2,false,Rx,0,6,F0,0F,FF,3C,F0,FF,00,00,
75675846,00000328,false,Rx,0,6,73,AC,1D,00,16,20,00,00,
75684839,000004C4,false,Rx,0,8,45,12,FF,FF,FF,FF,FF,FF,
75690830,000002EA,false,Rx,0,8,FF,00,64,FF,23,FF,FF,FF,
75691829,000002E6,false,Rx,0,8,00,00,64,32,20,FF,FF,FF,
75695826,000000A8,false,Rx,0,8,C3,09,00,00,00,0F,03,00,
75697823,000000AA,false,Rx,0,8,B7,09,00,00,FF,FF,04,00,
75699819,000000BE,false,Rx,0,5,5F,FF,FF,FF,FF,00,00,00,
75701818,000000C4,false,Rx,0,7,00,80,FD,00,80,FF,F6,00,
75703814,000000C8,false,Rx,0,6,00,80,FD,00,80,12,00,00,
75705812,000000CE,false,Rx,0,8,00,00,00,00,00,00,00,00,
75707810,0000019E,false,Rx,0,8,00,FA,40,FC,F0,63,00,2C,
75709806,000005E0,false,Rx,0,8,10,FF,FF,01,00,FF,FF,FF,
75710807,000001A0,false,Rx,0,8,00,80,00,08,80,00,48,F2,
75711805,00000130,false,Rx,0,5,00,02,34,3F,FE,00,00,00,
75720797,000000FD,false,Rx,0,3,FF,FF,FF,00,00,00,00,00,
75721795,000000FC,false,Rx,0,3,FF,FF,FF,00,00,00,00,00,
75744772,000001D0,false,Rx,0,8,44,FF,47,C6,00,00,3D,00,
75756756,000001FC,false,Rx,0,2,A3,02,00,00,00,00,00,00,
75757757,000000EA,false,Rx,0,8,8F,FF,E0,FD,FF,FF,FF,2B,
75767736,000001A6,false,Rx,0,8,00,00,00,00,00,00,04,FB,
75772732,0000033A,false,Rx,0,5,18,45,81,FD,78,00,00,00,
75773730,000004C5,false,Rx,0,8,60,12,FF,FF,FF,FF,FF,FF,
75795718,000000A8,false,Rx,0,8,BE,04,00,00,00,0F,03,00,
75797714,000000AA,false,Rx,0,8,B2,04,00,00,FF,FF,04,00,
75805706,000000CE,false,Rx,0,8,00,00,00,00,00,00,00,00,
75809702,000001A0,false,Rx,0,8,00,80,00,08,80,00,98,43,
75810704,00000130,false,Rx,0,5,00,02,34,3F,00,00,00,00,
75820687,000000FD,false,Rx,0,3,FF,FF,FF,00,00,00,00,00,
75821686,000000FC,false,Rx,0,3,FF,FF,FF,00,00,00,00,00,
75847660,000001D0,false,Rx,0,8,44,FF,48,C6,00,00,3D,00,
75848656,000000C0,false,Rx,0,2,F4,FF,00,00,00,00,00,00,
75857650,000000EA,false,Rx,0,8,8F,FF,E0,FD,FF,FF,FF,2B,
75859644,000005E0,false,Rx,0,8,10,FF,FF,01,00,FF,FF,FF,
75867635,000004E0,false,Rx,0,8,62,12,FF,FF,FF,FF,FF,FF,
75869633,000001A6,false,Rx,0,8,00,00,00,00,00,00,94,FC,
75874627,000001D2,false,Rx,0,6,F0,0F,FF,4C,F0,FF,00,00,
75895606,000000A8,false,Rx,0,8,C8,0E,00,00,00,0F,03,00,
75897603,000000AA,false,Rx,0,8,BC,0E,00,00,FF,FF,04,00,
75899600,000000BE,false,Rx,0,5,0F,FF,FF,FF,FF,00,00,00,
75901601,000000C4,false,Rx,0,7,00,80,FD,00,80,FF,F6,00,
75903596,000000C8,false,Rx,0,6,00,80,FD,00,80,32,00,00,
75905598,000000CE,false,Rx,0,8,00,00,00,00,00,00,00,00,
75907595,0000019E,false,Rx,0,8,00,FA,E0,FC,F0,63,00,CC,
75909591,000001A0,false,Rx,0,8,00,80,00,08,80,00,E8,93,
75911588,00000130,false,Rx,0,5,00,02,34,3F,11,00,00,00,
75911606,000001FE,false,Rx,0,2,FF,00,00,00,00,00,00,00,
75915586,00000304,false,Rx,0,2,E3,FF,00,00,00,00,00,00,
75920581,000000FD,false,Rx,0,3,FF,FF,FF,00,00,00,00,00,
75921578,000000FC,false,Rx,0,3,FF,FF,FF,00,00,00,00,00,
75935564,000002CE,false,Rx,0,3,80,80,F0,00,00,00,00,00,
75944554,000001D0,false,Rx,0,8,44,FF,49,C6,00,00,3D,00,
75947552,000002CA,false,Rx,0,2,79,FF,00,00,00,00,00,00,
75950547,000004E2,false,Rx,0,8,44,02,FF,FF,FF,FF,FF,FF,
75954543,000004C1,false,Rx,0,8,43,11,FE,FF,FF,FF,FF,FF,
75955540,000004E5,false,Rx,0,8,67,01,FF,FF,FF,FF,FF,FF,
75956544,000001FC,false,Rx,0,2,A4,02,00,00,00,00,00,00,
75957540,000000EA,false,Rx,0,8,8F,FF,E0,FD,FF,FF,FF,2B,
75959538,000004C0,false,Rx,0,8,41,01,FF,FF,FF,FF,FF,FF,
75960536,000004F0,false,Rx,0,8,72,01,FF,FF,FF,FF,FF,FF,
75961534,000004C3,false,Rx,0,8,44,11,FF,FF,FF,FF,FF,FF,
75962532,00000480,false,Rx,0,8,40,01,FF,FF,FF,FF,FF,FF,
75963481,000004E4,false,Rx,0,8,65,11,FF,FF,FF,FF,FF,FF,
75965456,000004E7,false,Rx,0,8,6D,11,FF,FF,FF,FF,FF,FF,
75966456,000004F2,false,Rx,0,8,73,01,FF,FF,FF,FF,FF,FF,
75967454,000004ED,false,Rx,0,8,6E,11,FF,FF,FF,FF,FF,FF,
75968453,000001B6,false,Rx,0,7,FF,FF,3C,00,00,00,00,00,
75970448,000001A6,false,Rx,0,8,00,00,00,00,00,00,24,FE,
75971476,000004EE,false,Rx,0,8,70,11,FF,FF,FF,FF,FF,FF,
75972521,000004F3,false,Rx,0,8,78,11,FF,01,FF,FF,FF,FF,
75973519,000004F8,false,Rx,0,8,00,11,FF,FF,FF,FF,FF,FF,
75995499,000000A8,false,Rx,0,8,C3,09,00,00,00,0F,03,00,
75997496,000000AA,false,Rx,0,8,B7,09,00,00,FF,FF,04,00,
76005489,000000CE,false,Rx,0,8,00,00,00,00,00,00,00,00,
76009481,000005E0,false,Rx,0,8,10,FF,FF,01,00,FF,FF,FF,
76010484,000001A0,false,Rx,0,8,00,80,00,E8,FE,00,48,52,
76011481,00000130,false,Rx,0,5,00,02,34,3F,22,00,00,00,
76020470,000000FD,false,Rx,0,3,FF,FF,FF,00,00,00,00,00,
76021468,000000FC,false,Rx,0,3,FF,FF,FF,00,00,00,00,00,
76044443,000004C4,false,Rx,0,8,45,12,FF,FF,FF,FF,FF,FF,
76047436,000001D0,false,Rx,0,8,44,FF,4A,C6,00,00,3D,00,
76048435,000000C0,false,Rx,0,2,F5,FF,00,00,00,00,00,00,
76057429,000000EA,false,Rx,0,8,8F,FF,E0,FD,FF,FF,FF,2B,
76067419,000001A6,false,Rx,0,8,00,00,00,00,00,00,B4,FF,
76068418,000001B5,false,Rx,0,6,FF,FF,02,00,08,FF,00,00,
76074410,000001D2,false,Rx,0,6,F0,0F,FF,5C,F0,FF,00,00,
76092395,0000033A,false,Rx,0,5,18,45,81,FD,78,00,00,00,
76095390,000000A8,false,Rx,0,8,BE,04,00,00,00,0F,03,00,
76097388,000000AA,false,Rx,0,8,B2,04,00,00,FF,FF,04,00,
76099384,000000BE,false,Rx,0,5,AF,FF,FF,FF,FF,00,00,00,
76101382,000000C4,false,Rx,0,7,00,80,FD,00,80,FF,F6,00,
76103382,000000C8,false,Rx,0,6,00,80,FD,00,80,52,00,00,
76105383,000000CE,false,Rx,0,8,00,00,00,00,00,00,00,00,
76107376,0000019E,false,Rx,0,8,00,FA,90,FC,F0,63,00,7C,
76109371,000001A0,false,Rx,0,8,00,80,00,E8,FE,00,98,A2,
76111371,00000130,false,Rx,0,5,00,02,34,3F,33,00,00,00,
76120360,000000FD,false,Rx,0,3,FF,FF,FF,00,00,00,00,00,
76121360,000000FC,false,Rx,0,3,FF,FF,FF,00,00,00,00,00,
76147332,000001D0,false,Rx,0,8,44,FF,4B,C6,00,00,3D,00,
76148330,000004C5,false,Rx,0,8,60,12,FF,FF,FF,FF,FF,FF,
76157320,000000EA,false,Rx,0,8,8F,FF,E0,FD,FF,FF,FF,2B,
76158321,000001FC,false,Rx,0,2,A5,03,00,00,00,00,00,00,
76167275,000001A6,false,Rx,0,8,00,00,00,00,00,00,44,F1,
76195280,000000A8,false,Rx,0,8,C8,0E,00,00,00,0F,03,00,
76197277,000000AA,false,Rx,0,8,BC,0E,00,00,FF,FF,04,00,
76205267,000000CE,false,Rx,0,8,00,00,00,00,00,00,00,00,
76209264,000001A0,false,Rx,0,8,00,80,00,E8,FE,00,E8,F2,
76210265,00000130,false,Rx,0,5,00,02,34,3F,44,00,00,00,
76220254,000000FD,false,Rx,0,3,FF,FF,FF,00,00,00,00,00,
76221252,000000FC,false,Rx,0,3,FF,FF,FF,00,00,00,00,00,
76245225,000001D0,false,Rx,0,8,44,FF,4C,C6,00,00,3D,00,
76247183,000000C0,false,Rx,0,2,F6,FF,00,00,00,00,00,00,
76248222,000004E0,false,Rx,0,8,62,12,FF,FF,FF,FF,FF,FF,
76252219,0000033A,false,Rx,0,5,18,45,81,FD,78,00,00,00,
76263204,000001A6,false,Rx,0,8,00,00,00,00,00,00,D4,F2,
76268200,000001D6,false,Rx,0,2,C0,00,00,00,00,00,00,00,
76269199,000001EA,false,Rx,0,2,F0,FF,00,00,00,00,00,00,
76270203,000001EE,false,Rx,0,2,00,FF,00,00,00,00,00,00,
76270223,000002A6,false,Rx,0,2,00,FC,00,00,00,00,00,00,
76274195,000001D2,false,Rx,0,6,F0,0F,FF,6C,F0,FF,00,00,
76295121,000000A8,false,Rx,0,8,C2,08,00,00,00,0F,03,00,
76297167,000000AA,false,Rx,0,8,B7,09,00,00,FF,FF,04,00,
76299169,000000BE,false,Rx,0,5,5F,FF,FF,FF,FF,00,00,00,
76301164,000000C4,false,Rx,0,7,00,80,FD,00,80,FF,F6,00,
76303163,000000C8,false,Rx,0,6,00,80,FD,00,80,72,00,00,
76305159,000000CE,false,Rx,0,8,00,00,00,00,00,00,00,00,
76307156,0000019E,false,Rx,0,8,00,FA,40,FC,F0,63,00,2C,
76309156,000001A0,false,Rx,0,8,00,80,00,E0,FE,00,48,4A,
76310154,00000130,false,Rx,0,5,00,02,34,3F,55,00,00,00,
76320142,000000FD,false,Rx,0,3,FF,FF,FF,00,00,00,00,00,
76321141,000000FC,false,Rx,0,3,FF,FF,FF,00,00,00,00,00,
76346119,000001D0,false,Rx,0,8,44,FF,4D,C6,00,00,3D,00,
76354111,000004E2,false,Rx,0,8,64,02,FF,FF,FF,FF,FF,FF,
76357103,000001FC,false,Rx,0,2,A6,03,00,00,00,00,00,00,
76363096,0000019E,false,Rx,0,8,00,EE,70,FC,F0,63,01,51,
76364095,000001A6,false,Rx,0,8,00,00,00,00,00,00,64,F4,
76395062,000000A8,false,Rx,0,8,BD,03,00,00,00,0F,03,00,
76397060,000000AA,false,Rx,0,8,B2,04,00,00,FF,FF,04,00,
76405050,000000CE,false,Rx,0,8,00,00,00,00,00,00,00,00,
76409045,000001A0,false,Rx,0,8,00,80,05,E0,FE,F4,9F,9B,
76410045,00000130,false,Rx,0,5,00,02,34,3F,66,00,00,00,
76412045,0000033A,false,Rx,0,5,18,45,81,FD,78,00,00,00,
76420034,000000FD,false,Rx,0,3,FF,FF,FF,00,00,00,00,00,
76421036,000000FC,false,Rx,0,3,FF,FF,FF,00,00,00,00,00,
76446008,000001D0,false,Rx,0,8,44,FF,4E,C6,00,00,3D,00,
76447018,000000C0,false,Rx,0,2,F7,FF,00,00,00,00,00,00,
76454004,000004E4,false,Rx,0,8,65,12,FF,FF,FF,FF,FF,FF,
76462994,000001A6,false,Rx,0,8,00,00,00,00,00,00,F4,F5,
76473981,000001D2,false,Rx,0,6,F0,0F,FF,7C,F0,FF,00,00,
76494959,000000A8,false,Rx,0,8,C7,0D,00,00,00,0F,03,00,
76496956,000000AA,false,Rx,0,8,BC,0E,00,00,FF,FF,04,00,
76497957,00000398,false,Rx,0,2,CF,FF,00,00,00,00,00,00,
76498958,000000BE,false,Rx,0,5,0F,FF,FF,FF,FF,00,00,00,
76500952,000000C4,false,Rx,0,7,00,80,FD,00,80,FF,F6,00,
76502949,00000398,false,Rx,0,2,CF,9F,00,00,00,00,00,00,
76503948,000000C8,false,Rx,0,6,00,80,FD,00,80,92,00,00,
76504948,000000CE,false,Rx,0,8,00,00,00,00,00,00,00,00,
76506947,0000019E,false,Rx,0,8,00,EE,E0,FC,F0,63,00,C0,
76508946,000001A0,false,Rx,0,8,00,80,01,E0,FE,F2,EF,E5,
76509945,00000130,false,Rx,0,5,00,02,34,3F,77,00,00,00,
76519933,000000FD,false,Rx,0,3,FF,FF,FF,00,00,00,00,00,
76520886,000000FC,false,Rx,0,3,FF,FF,FF,00,00,00,00,00,
76545912,000001D0,false,Rx,0,8,44,FF,40,C6,00,00,3D,00,
76556897,000001FC,false,Rx,0,2,A7,03,00,00,00,00,00,00,
76558892,000004E5,false,Rx,0,8,67,12,FF,FF,FF,FF,FF,FF,
76563890,000001A6,false,Rx,0,8,00,00,00,00,00,00,84,F7,
76594858,000000A8,false,Rx,0,8,C2,08,00,00,00,0F,03,00,
76596855,000000AA,false,Rx,0,8,B7,09,00,00,FF,FF,04,00,
76600853,000000F2,false,Rx,0,8,F0,FF,87,FD,FF,FF,FF,FF,
76604850,000000CE,false,Rx,0,8,00,00,00,00,00,00,00,00,
76608844,000001A0,false,Rx,0,8,00,80,FD,EF,FE,F4,4F,53,
76609842,00000130,false,Rx,0,5,00,02,34,3F,88,00,00,00,
76619833,000000FD,false,Rx,0,3,FF,FF,FF,00,00,00,00,00,
76620829,000000FC,false,Rx,0,3,FF,FF,FF,00,00,00,00,00,
76640813,000004E7,false,Rx,0,8,6D,12,FF,FF,FF,FF,FF,FF,
76645805,000001D0,false,Rx,0,8,44,FF,41,C6,00,00,3D,00,
76646806,000000C0,false,Rx,0,2,F8,FF,00,00,00,00,00,00,
76654799,000005C0,false,Rx,0,8,04,00,32,FF,FF,FF,F4,FF,
76662788,000001A6,false,Rx,0,8,00,00,00,00,00,00,14,F9,
76670782,000005A9,false,Rx,0,8,40,50,01,14,FF,FF,FF,FF,
76673778,000001D2,false,Rx,0,6,F0,0F,FF,8C,F0,FF,00,00,
76674778,00000328,false,Rx,0,6,74,AC,1D,00,16,20,00,00,
76694758,000000A8,false,Rx,0,8,BD,03,00,00,00,0F,03,00,
76696753,000000AA,false,Rx,0,8,B2,04,00,00,FF,FF,04,00,
76698751,000000BE,false,Rx,0,5,AF,FF,FF,FF,FF,00,00,00,
76700751,000000C4,false,Rx,0,7,00,80,FD,00,80,FF,F6,00,
76702746,000000C8,false,Rx,0,6,00,80,FD,00,80,8A,00,00,
76704746,000000CE,false,Rx,0,8,00,00,00,00,00,00,00,00,
76706744,0000019E,false,Rx,0,8,00,EE,90,FC,F0,63,00,70,
76708741,000001A0,false,Rx,0,8,00,80,00,E0,FE,F4,9F,96,
76710740,00000130,false,Rx,0,5,00,02,34,3F,99,00,00,00,
76719731,000000FD,false,Rx,0,3,FF,FF,FF,00,00,00,00,00,
76720732,000000FC,false,Rx,0,3,FF,FF,FF,00,00,00,00,00,
76724725,000004ED,false,Rx,0,8,6E,12,FF,FF,FF,FF,FF,FF,
76725723,00000592,false,Rx,0,8,40,22,00,31,FF,FF,FF,FF,
76741708,0000019E,false,Rx,0,8,00,ED,B0,FC,F0,63,00,8F,
76746703,000001D0,false,Rx,0,8,44,FF,42,C6,00,00,3D,00,
76756695,000001FC,false,Rx,0,2,A8,03,00,00,00,00,00,00,
76762686,000001A6,false,Rx,0,8,00,00,00,00,00,00,A4,FA,
76794656,000000A8,false,Rx,0,8,C7,0D,00,00,00,0F,03,00,
76796651,000000AA,false,Rx,0,8,BC,0E,00,00,FF,FF,04,00,
76804644,000000CE,false,Rx,0,8,00,00,00,00,00,00,00,00,
76808639,000004EE,false,Rx,0,8,70,12,FF,FF,FF,FF,FF,FF,
76809640,000001A0,false,Rx,0,8,00,80,01,E0,FE,F4,EF,E7,
76810637,00000130,false,Rx,0,5,00,02,34,3F,BA,00,00,00,
76819631,000000FD,false,Rx,0,3,FF,FF,FF,00,00,00,00,00,
76820628,000000FC,false,Rx,0,3,FF,FF,FF,00,00,00,00,00,
76846605,000001D0,false,Rx,0,8,44,FF,43,C6,00,00,3D,00,
76846625,000000C0,false,Rx,0,2,F9,FF,00,00,00,00,00,00,
76862586,000001A6,false,Rx,0,8,00,00,00,00,00,00,34,FC,
76872576,00000580,false,Rx,0,8,04,11,04,01,05,FF,00,F0,
76873574,000001D2,false,Rx,0,6,F0,0F,FF,9C,F0,FF,00,00,
76893557,000004F0,false,Rx,0,8,72,12,FF,FF,FF,FF,FF,FF,
76895552,000000A8,false,Rx,0,8,C2,08,00,00,00,0F,03,00,
76896500,000000AA,false,Rx,0,8,B6,08,00,00,FF,FF,04,00,
76898549,000000BE,false,Rx,0,5,5F,FF,FF,FF,FF,00,00,00,
76900546,000000C4,false,Rx,0,7,00,80,FD,00,80,FF,F6,00,
76902543,000000C8,false,Rx,0,6,00,80,FD,00,80,D2,00,00,
76904544,000000CE,false,Rx,0,8,00,00,00,00,00,00,00,00,
76906540,0000019E,false,Rx,0,8,00,ED,40,FC,F0,43,00,FE,
76908539,000001A0,false,Rx,0,8,00,80,01,E0,FE,F2,4F,45,
76910538,0000026E,false,Rx,0,8,00,00,00,50,FF,FF,FF,FF,
76910558,000001FE,false,Rx,0,2,FF,00,00,00,00,00,00,00,
76911535,00000130,false,Rx,0,5,00,02,34,3F,CB,00,00,00,
76914533,00000304,false,Rx,0,2,E3,FF,00,00,00,00,00,00,
76919526,000000FD,false,Rx,0,3,FF,FF,FF,00,00,00,00,00,
76920529,000000FC,false,Rx,0,3,FF,FF,FF,00,00,00,00,00,
76946502,000001D0,false,Rx,0,8,44,FF,44,C6,00,00,3D,00,
76947499,000002CA,false,Rx,0,2,79,FF,00,00,00,00,00,00,
76956490,000001FC,false,Rx,0,2,A9,03,00,00,00,00,00,00,
76962485,000001A6,false,Rx,0,8,00,00,00,00,00,00,C4,FD,
76966480,000001B6,false,Rx,0,7,FF,FF,3C,00,00,00,00,00,
76982463,000004F2,false,Rx,0,8,73,02,FF,FF,FF,FF,FF,FF,
76994453,000000A8,false,Rx,0,8,BD,03,00,00,00,0F,03,00,
76996451,000000AA,false,Rx,0,8,B1,03,00,00,FF,FF,04,00,
77004431,000000CE,false,Rx,0,8,00,00,00,00,00,00,00,00,
77008425,000001A0,false,Rx,0,8,00,80,01,E0,FE,F7,9F,9A,
77009436,00000130,false,Rx,0,5,00,02,34,3F,DC,00,00,00,
77019428,000000FD,false,Rx,0,3,FF,FF,FF,00,00,00,00,00,
77020423,000000FC,false,Rx,0,3,FF,FF,FF,00,00,00,00,00,
77046399,000001D0,false,Rx,0,8,44,FF,45,C6,00,00,3D,00,
77047396,000000C0,false,Rx,0,2,FA,FF,00,00,00,00,00,00,
77055338,000002CE,false,Rx,0,3,80,80,F0,00,00,00,00,00,
77063325,000001A6,false,Rx,0,8,00,00,00,00,00,00,54,FF,
77066316,000004F3,false,Rx,0,8,78,12,FF,01,FF,FF,FF,FF,
77067318,000001B5,false,Rx,0,6,FF,FF,02,00,08,FF,00,00,
77073362,000001D2,false,Rx,0,6,F0,0F,FF,AC,F0,FF,00,00,
77094350,000000A8,false,Rx,0,8,C7,0D,00,00,00,0F,03,00,
77096349,000000AA,false,Rx,0,8,BB,0D,00,00,FF,FF,04,00,
77098346,000000BE,false,Rx,0,5,0F,FF,FF,FF,FF,00,00,00,
77100345,000000C4,false,Rx,0,7,00,80,FD,00,80,FF,F6,00,
77102344,000000C8,false,Rx,0,6,00,80,FD,00,80,F2,00,00,
77104342,000000CE,false,Rx,0,8,00,00,00,00,00,00,00,00,
77106338,0000019E,false,Rx,0,8,00,ED,E0,FC,F0,43,00,9F,
77108337,000001A0,false,Rx,0,8,00,80,01,E0,FE,F7,EF,EA,
77110336,00000130,false,Rx,0,5,00,02,34,3F,ED,00,00,00,
77112334,000000C1,false,Rx,0,2,F0,FF,00,00,00,00,00,00,
77119326,000000FD,false,Rx,0,3,FF,FF,FF,00,00,00,00,00,
77120325,000000FC,false,Rx,0,3,FF,FF,FF,00,00,00,00,00,
77139305,000002FA,false,Rx,0,5,FF,04,FF,FF,FF,00,00,00,
77147301,000001D0,false,Rx,0,8,44,FF,46,C6,00,00,3D,00,
77156290,000001FC,false,Rx,0,2,AA,03,00,00,00,00,00,00,
77157290,000004F8,false,Rx,0,8,00,12,FF,FF,FF,FF,FF,FF,
77162285,000001A6,false,Rx,0,8,00,00,00,00,00,00,E4,F0,
77184260,000002FA,false,Rx,0,5,FC,04,FF,FF,FF,00,00,00,
77194250,000000A8,false,Rx,0,8,C2,08,00,00,00,0F,03,00,
77196246,000000AA,false,Rx,0,8,B6,08,00,00,FF,FF,04,00,
77204238,000000CE,false,Rx,0,8,00,00,00,00,00,00,00,00,
77208237,000001A0,false,Rx,0,8,00,80,01,E0,FE,F7,4F,4A,
77209234,00000130,false,Rx,0,5,00,02,34,3F,FE,00,00,00,
77211181,0000033A,false,Rx,0,5,18,45,81,FD,78,00,00,00,
77219226,000000FD,false,Rx,0,3,FF,FF,FF,00,00,00,00,00,
77220224,000000FC,false,Rx,0,3,FF,FF,FF,00,00,00,00,00,
77230213,00000480,false,Rx,0,8,40,02,FF,01,FF,FF,FF,FF,
77246139,000000C0,false,Rx,0,2,FB,FF,00,00,00,00,00,00,
77247155,000001D0,false,Rx,0,8,44,FF,47,C6,00,00,3D,00,
77263165,000001A6,false,Rx,0,8,00,00,00,00,00,00,74,F2,
77268178,000001D6,false,Rx,0,2,C0,00,00,00,00,00,00,00,
77269173,000001EA,false,Rx,0,2,F0,FF,00,00,00,00,00,00,
77270172,000001EE,false,Rx,0,2,00,FF,00,00,00,00,00,00,
77270193,000002A6,false,Rx,0,2,00,FC,00,00,00,00,00,00,
77273171,000001D2,false,Rx,0,6,F0,0F,FF,BC,F0,FF,00,00,
77294147,000000A8,false,Rx,0,8,BD,03,00,00,00,0F,03,00,
77296144,000000AA,false,Rx,0,8,B1,03,00,00,FF,FF,04,00,
77298145,000000BE,false,Rx,0,5,AF,FF,FF,FF,FF,00,00,00,
77300142,000000C4,false,Rx,0,7,00,80,FD,00,80,FF,F6,00,
77302140,000000C8,false,Rx,0,6,00,80,FD,00,80,12,00,00,
77304137,000000CE,false,Rx,0,8,00,00,00,00,00,00,00,00,
77306135,0000019E,false,Rx,0,8,00,ED,90,FC,F0,43,00,4F,
77308132,000001A0,false,Rx,0,8,00,80,01,E0,FE,F4,9F,97,
77310130,00000130,false,Rx,0,5,00,02,34,3F,00,00,00,00,
77314127,000004C0,false,Rx,0,8,41,02,FF,FF,FF,FF,FF,FF,
77319092,000000FD,false,Rx,0,3,FF,FF,FF,00,00,00,00,00,
77320123,000000FC,false,Rx,0,3,FF,FF,FF,00,00,00,00,00,
77347098,000001D0,false,Rx,0,8,44,FF,48,C6,00,00,3D,00,
77356086,000001FC,false,Rx,0,2,AB,03,00,00,00,00,00,00,
77362081,000001A6,false,Rx,0,8,00,00,00,00,00,00,04,F4,
77371070,0000033A,false,Rx,0,5,18,45,81,FD,78,00,00,00,
77390052,0000031D,false,Rx,0,2,FF,FE,00,00,00,00,00,00,
77394049,000000A8,false,Rx,0,8,C7,0D,00,00,00,0F,03,00,
77396044,000000AA,false,Rx,0,8,BB,0D,00,00,FF,FF,04,00,
77397045,000004C1,false,Rx,0,8,43,12,FE,FF,FF,FF,FF,FF,
77404035,000000CE,false,Rx,0,8,00,00,00,00,00,00,00,00,
77408033,000001A0,false,Rx,0,8,00,80,01,E0,FE,F4,EF,E7,
77409030,00000130,false,Rx,0,5,00,02,34,3F,11,00,00,00,
77419021,000000FD,false,Rx,0,3,FF,FF,FF,00,00,00,00,00,
77420024,000000FC,false,Rx,0,3,FF,FF,FF,00,00,00,00,00,
77445997,000000C0,false,Rx,0,2,FC,FF,00,00,00,00,00,00,
77446994,000001D0,false,Rx,0,8,44,FF,49,C6,00,00,3D,00,
77461983,000001A6,false,Rx,0,8,00,00,00,00,00,00,94,F5,
77472971,000001D2,false,Rx,0,6,F0,0F,FF,CC,F0,FF,00,00,
77486937,000004C3,false,Rx,0,8,44,12,FF,FF,FF,FF,FF,FF,
77493949,000000A8,false,Rx,0,8,C2,08,00,00,00,0F,03,00,
77495947,000000AA,false,Rx,0,8,B6,08,00,00,FF,FF,04,00,
77497946,000000BE,false,Rx,0,5,5F,FF,FF,FF,FF,00,00,00,
77499943,000000C4,false,Rx,0,7,00,80,FD,00,80,FF,F6,00,
77501941,000000C8,false,Rx,0,6,00,80,FD,00,80,32,00,00,
77503939,000000CE,false,Rx,0,8,00,00,00,00,00,00,00,00,
77505939,0000019E,false,Rx,0,8,00,ED,40,FC,F0,43,00,FE,
77507936,000001A0,false,Rx,0,8,00,80,01,E0,FE,F4,4F,47,
77509933,00000130,false,Rx,0,5,00,02,34,3F,22,00,00,00,
77518927,000000FD,false,Rx,0,3,FF,FF,FF,00,00,00,00,00,
77519925,000000FC,false,Rx,0,3,FF,FF,FF,00,00,00,00,00,
77530914,0000033A,false,Rx,0,5,18,45,81,FD,78,00,00,00,
77546898,000001D0,false,Rx,0,8,44,FF,4A,C6,00,00,3D,00,
77551896,00000313,false,Rx,0,2,F0,F0,00,00,00,00,00,00,
77555892,000001FC,false,Rx,0,2,AC,03,00,00,00,00,00,00,
77558892,00000313,false,Rx,0,2,00,F0,00,00,00,00,00,00,
77561884,000001A6,false,Rx,0,8,00,00,00,00,00,00,24,F7,
77582867,000004C4,false,Rx,0,8,45,52,FF,FF,FF,FF,FF,FF,
77593853,000000A8,false,Rx,0,8,BD,03,00,00,00,0F,03,00,
77595853,000000AA,false,Rx,0,8,B1,03,00,00,FF,FF,04,00,
77603845,000000CE,false,Rx,0,8,00,00,00,00,00,00,00,00,
77607842,000001A0,false,Rx,0,8,00,80,01,E0,FE,F7,9F,9A,
77608840,00000130,false,Rx,0,5,00,02,34,3F,33,00,00,00,
77618831,000000FD,false,Rx,0,3,FF,FF,FF,00,00,00,00,00,
77619832,000000FC,false,Rx,0,3,FF,FF,FF,00,00,00,00,00,
77645809,000000C0,false,Rx,0,2,FD,FF,00,00,00,00,00,00,
77647807,000001D0,false,Rx,0,8,44,FF,4B,C6,00,00,3D,00,
77661792,000001A6,false,Rx,0,8,00,00,00,00,00,00,B4,F8,
77667786,000004C5,false,Rx,0,8,60,52,FF,FF,FF,FF,FF,FF,
77672781,000001D2,false,Rx,0,6,F0,0F,FF,DC,F0,FF,00,00,
77673778,00000328,false,Rx,0,6,75,AC,1D,00,16,20,00,00,
77683769,00000313,false,Rx,0,2,00,F8,00,00,00,00,00,00,
77693759,000000A8,false,Rx,0,8,C7,0D,00,00,00,0F,03,00,
77695756,000000AA,false,Rx,0,8,BB,0D,00,00,FF,FF,04,00,
77697757,000000BE,false,Rx,0,5,0F,FF,FF,FF,FF,00,00,00,
77699753,000000C4,false,Rx,0,7,00,80,FD,00,80,FF,F6,00,
77701752,000000C8,false,Rx,0,6,00,80,FD,00,80,52,00,00,
77703750,000000CE,false,Rx,0,8,00,00,00,00,00,00,00,00,
77705750,0000019E,false,Rx,0,8,00,ED,E0,FC,F0,43,00,9F,
77707748,000001A0,false,Rx,0,8,00,80,01,E0,FE,F7,EF,EA,
77709745,00000130,false,Rx,0,5,00,02,34,3F,44,00,00,00,
77718736,000000FD,false,Rx,0,3,FF,FF,FF,00,00,00,00,00,
77719736,000000FC,false,Rx,0,3,FF,FF,FF,00,00,00,00,00,
77747706,000001D0,false,Rx,0,8,44,FF,4C,C6,00,00,3D,00,
77755704,000001FC,false,Rx,0,2,AD,03,00,00,00,00,00,00,
77761697,000001A6,false,Rx,0,8,00,00,00,00,00,00,44,FA,
77766694,000004E0,false,Rx,0,8,62,52,FF,FF,FF,FF,FF,FF,
77793667,000000A8,false,Rx,0,8,C2,08,00,00,00,0F,03,00,
77795664,000000AA,false,Rx,0,8,B6,08,00,00,FF,FF,04,00,
77803655,000000CE,false,Rx,0,8,00,00,00,00,00,00,00,00,
77807653,000001A0,false,Rx,0,8,00,80,01,D0,FE,F4,4F,37,
77808650,00000130,false,Rx,0,5,00,02,34,3F,55,00,00,00,
77818641,000000FD,false,Rx,0,3,FF,FF,FF,00,00,00,00,00,
77819639,000000FC,false,Rx,0,3,FF,FF,FF,00,00,00,00,00,
77845615,000000C0,false,Rx,0,2,FE,FF,00,00,00,00,00,00,
77847614,000001D0,false,Rx,0,8,44,FF,4D,C6,00,00,3D,00,
77848616,000004E2,false,Rx,0,8,64,42,FF,FF,FF,FF,FF,FF,
77861599,000001A6,false,Rx,0,8,00,00,00,00,00,00,D4,FB,
77872589,000001D2,false,Rx,0,6,F0,0F,FF,EC,F0,FF,00,00,
77893573,000000A8,false,Rx,0,8,BD,03,00,00,00,0F,03,00,
77895570,000000AA,false,Rx,0,8,B1,03,00,00,FF,FF,04,00,
77897564,000000BE,false,Rx,0,5,AF,FF,FF,FF,FF,00,00,00,
77899562,000000C4,false,Rx,0,7,00,80,FD,00,80,FF,F6,00,
77901561,000000C8,false,Rx,0,6,00,80,FD,00,80,4A,00,00,
77903559,000000CE,false,Rx,0,8,00,00,00,00,00,00,00,00,
77905560,0000019E,false,Rx,0,8,00,ED,90,FC,F0,43,00,4F,
77907555,000001A0,false,Rx,0,8,00,80,FD,EF,FE,F4,9F,A3,
77909555,00000130,false,Rx,0,5,00,02,34,3F,66,00,00,00,
77909575,000001FE,false,Rx,0,2,FF,00,00,00,00,00,00,00,
77913551,00000304,false,Rx,0,2,E3,FF,00,00,00,00,00,00,
77918546,000000FD,false,Rx,0,3,FF,FF,FF,00,00,00,00,00,
77919544,000000FC,false,Rx,0,3,FF,FF,FF,00,00,00,00,00,
77945518,000002CA,false,Rx,0,2,79,FF,00,00,00,00,00,00,
77947518,000004E4,false,Rx,0,8,65,52,FF,FF,FF,FF,FF,FF,
77949514,000001D0,false,Rx,0,8,44,FF,4E,C6,00,00,3D,00,
77955513,000001FC,false,Rx,0,2,AE,03,00,00,00,00,00,00,
77961506,000001A6,false,Rx,0,8,00,00,00,00,00,00,64,FD,
77968502,000001B6,false,Rx,0,7,FF,FF,3C,00,00,00,00,00,
77993473,000000A8,false,Rx,0,8,C7,0D,00,00,00,0F,03,00,
77995472,000000AA,false,Rx,0,8,BB,0D,00,00,FF,FF,04,00,
78003452,000000CE,false,Rx,0,8,00,00,00,00,00,00,00,00,
78007452,000001A0,false,Rx,0,8,00,80,01,E0,FE,F7,EF,EA,
78008461,00000130,false,Rx,0,5,00,02,34,3F,77,00,00,00,
78018449,000000FD,false,Rx,0,3,FF,FF,FF,00,00,00,00,00,
78019453,000000FC,false,Rx,0,3,FF,FF,FF,00,00,00,00,00,
78037431,000004E5,false,Rx,0,8,67,52,FF,FF,FF,FF,FF,FF,
78039429,000002FC,false,Rx,0,7,80,01,05,FF,FF,FF,FF,00,
78040431,000002A0,false,Rx,0,8,88,88,88,00,02,60,00,20,
78045425,000000C0,false,Rx,0,2,F0,FF,00,00,00,00,00,00,
78048420,000001D0,false,Rx,0,8,44,FF,40,C6,00,00,3D,00,
78061414,000001A6,false,Rx,0,8,00,00,00,00,00,00,F4,FE,
78065407,000001B5,false,Rx,0,6,FF,FF,02,00,08,FF,00,00,
78072397,000001D2,false,Rx,0,6,F0,0F,FF,0C,F0,FF,00,00,
78093380,000000A8,false,Rx,0,8,C2,08,00,00,00,0F,03,00,
78095379,000000AA,false,Rx,0,8,B6,08,00,00,FF,FF,04,00,
78097374,000000BE,false,Rx,0,5,5F,FF,FF,FF,FF,00,00,00,
78099375,000000C4,false,Rx,0,7,00,80,FD,00,80,FF,F6,00,
78101370,000000C8,false,Rx,0,6,00,80,FD,00,80,6A,00,00,
78103369,000000CE,false,Rx,0,8,00,00,00,00,00,00,00,00,
78106366,0000019E,false,Rx,0,8,00,ED,40,FC,F0,43,00,FE,
78107367,000001A0,false,Rx,0,8,00,80,01,E0,FE,F4,4F,47,
78109363,00000130,false,Rx,0,5,00,02,34,3F,88,00,00,00,
78109383,000003BD,false,Rx,0,2,FD,FF,00,00,00,00,00,00,
78118355,000000FD,false,Rx,0,3,FF,FF,FF,00,00,00,00,00,
78119355,000000FC,false,Rx,0,3,FF,FF,FF,00,00,00,00,00,
78121351,000004E7,false,Rx,0,8,6D,52,FF,FF,FF,FF,FF,FF,
78123355,000005E7,false,Rx,0,8,01,01,AA,FF,FF,FF,FF,FF,
78148328,000001D0,false,Rx,0,8,44,FF,41,C6,00,00,3D,00,
78155323,000001FC,false,Rx,0,2,A0,03,00,00,00,00,00,00,
78162315,000001A6,false,Rx,0,8,00,00,00,00,00,00,84,F0,
78193285,000000A8,false,Rx,0,8,BD,03,00,00,00,0F,03,00,
78195281,000000AA,false,Rx,0,8,B1,03,00,00,FF,FF,04,00,
78203274,000000CE,false,Rx,0,8,00,00,00,00,00,00,00,00,
78207269,000001A0,false,Rx,0,8,00,80,FD,EF,FE,F4,9F,A3,
78208269,00000130,false,Rx,0,5,00,02,34,3F,99,00,00,00,
78218260,000004ED,false,Rx,0,8,6E,52,FF,FF,FF,FF,FF,FF,
78219258,000000FD,false,Rx,0,3,FF,FF,FF,00,00,00,00,00,
78219278,000000FC,false,Rx,0,3,FF,FF,FF,00,00,00,00,00,
78245236,000000C0,false,Rx,0,2,F1,FF,00,00,00,00,00,00,
78248234,000001D0,false,Rx,0,8,44,FF,42,C6,00,00,3D,00,
78261219,000001A6,false,Rx,0,8,00,00,00,00,00,00,14,F2,
78267214,000001D6,false,Rx,0,2,C0,00,00,00,00,00,00,00,
78268215,000001EA,false,Rx,0,2,F0,FF,00,00,00,00,00,00,
78268236,000001EE,false,Rx,0,2,00,FF,00,00,00,00,00,00,
78269214,000002A6,false,Rx,0,2,00,FC,00,00,00,00,00,00,
78272209,000001D2,false,Rx,0,6,F0,0F,FF,1C,F0,FF,00,00,
78293190,000000A8,false,Rx,0,8,C7,0D,00,00,00,0F,03,00,
78295188,000000AA,false,Rx,0,8,BB,0D,00,00,FF,FF,04,00,
78297187,000000BE,false,Rx,0,5,0F,FF,FF,FF,FF,00,00,00,
78299183,000000C4,false,Rx,0,7,00,80,FD,00,80,FF,F6,00,
78301181,000000C8,false,Rx,0,6,00,80,FD,00,80,8A,00,00,
78302178,000004EE,false,Rx,0,8,70,52,FF,FF,FF,FF,FF,FF,
78304176,000000CE,false,Rx,0,8,00,00,00,00,00,00,00,00,
78305180,0000019E,false,Rx,0,8,00,ED,E0,FC,F0,43,00,9F,
78307177,000001A0,false,Rx,0,8,00,80,01,E0,FE,F4,EF,E7,
78309173,00000130,false,Rx,0,5,00,02,34,3F,BA,00,00,00,
78318167,000000FD,false,Rx,0,3,FF,FF,FF,00,00,00,00,00,
78319166,000000FC,false,Rx,0,3,FF,FF,FF,00,00,00,00,00,
78348137,000001D0,false,Rx,0,8,44,FF,43,C6,00,00,3D,00,
78349139,0000031D,false,Rx,0,2,00,FE,00,00,00,00,00,00,
78355129,000001FC,false,Rx,0,2,A1,03,00,00,00,00,00,00,
78361125,000001A6,false,Rx,0,8,00,00,00,00,00,00,A4,F3,
78393093,000004F0,false,Rx,0,8,72,52,FF,FF,FF,FF,FF,FF,
78394091,000000A8,false,Rx,0,8,C2,08,00,00,00,0F,03,00,
78395083,000000AA,false,Rx,0,8,B6,08,00,00,FF,FF,04,00,
78403086,000000CE,false,Rx,0,8,00,00,00,00,00,00,00,00,
78407083,000001A0,false,Rx,0,8,00,80,01,E0,FE,F4,4F,47,
78408079,00000130,false,Rx,0,5,00,02,34,3F,CB,00,00,00,
78418069,000000FD,false,Rx,0,3,FF,FF,FF,00,00,00,00,00,
78419071,000000FC,false,Rx,0,3,FF,FF,FF,00,00,00,00,00,
78445046,000000C0,false,Rx,0,2,F2,FF,00,00,00,00,00,00,
78449042,000001D0,false,Rx,0,8,44,FF,44,C6,00,00,3D,00,
78462032,000001A6,false,Rx,0,8,00,00,00,00,00,00,34,F5,
78472023,000001D2,false,Rx,0,6,F0,0F,FF,2C,F0,FF,00,00,
78481014,000004F2,false,Rx,0,8,73,42,FF,FF,FF,FF,FF,FF,
78493005,000000A8,false,Rx,0,8,BD,03,00,00,00,0F,03,00,
78495003,000000AA,false,Rx,0,8,B1,03,00,00,FF,FF,04,00,
78496998,000000BE,false,Rx,0,5,AF,FF,FF,FF,FF,00,00,00,
78498998,000000C4,false,Rx,0,7,00,80,FD,00,80,FF,F6,00,
78500996,000000C8,false,Rx,0,6,00,80,FD,00,80,AA,00,00,
78502996,000000CE,false,Rx,0,8,00,00,00,00,00,00,00,00,
78504993,0000019E,false,Rx,0,8,00,ED,90,FC,F0,43,00,4F,
78506990,000001A0,false,Rx,0,8,00,80,01,E0,FE,F4,9F,97,
78508989,00000130,false,Rx,0,5,00,02,34,3F,DC,00,00,00,
78517980,000000FD,false,Rx,0,3,FF,FF,FF,00,00,00,00,00,
78518980,000000FC,false,Rx,0,3,FF,FF,FF,00,00,00,00,00,
78548955,000001D0,false,Rx,0,8,44,FF,45,C6,00,00,3D,00,
78554950,000001FC,false,Rx,0,2,A2,03,00,00,00,00,00,00,
78562942,000001A6,false,Rx,0,8,00,00,00,00,00,00,C4,F6,
78564942,000004F3,false,Rx,0,8,78,52,FF,01,FF,FF,FF,FF,
78592917,000000A8,false,Rx,0,8,C7,0D,00,00,00,0F,03,00,
78594913,000000AA,false,Rx,0,8,BB,0D,00,00,FF,FF,04,00,
78602905,000000CE,false,Rx,0,8,00,00,00,00,00,00,00,00,
78606901,000001A0,false,Rx,0,8,00,80,01,E0,FE,F4,EF,E7,
78607850,00000130,false,Rx,0,5,00,02,34,3F,ED,00,00,00,
78618831,000000FD,false,Rx,0,3,FF,FF,FF,00,00,00,00,00,
78618844,000000FC,false,Rx,0,3,FF,FF,FF,00,00,00,00,00,
78644816,000000C0,false,Rx,0,2,F3,FF,00,00,00,00,00,00,
78648809,000001D0,false,Rx,0,8,44,FF,46,C6,00,00,3D,00,
78652801,000005C0,false,Rx,0,8,04,00,32,FF,FF,FF,F4,FF,
78655802,000004F8,false,Rx,0,8,00,52,FF,FF,FF,FF,FF,FF,
78661801,000001A6,false,Rx,0,8,00,00,00,00,00,00,54,F8,
78671788,000001D2,false,Rx,0,6,F0,0F,FF,3C,F0,FF,00,00,
78672769,00000328,false,Rx,0,6,76,AC,1D,00,16,20,00,00,
78692765,000000A8,false,Rx,0,8,C2,08,00,00,00,0F,03,00,
78694742,000000AA,false,Rx,0,8,B6,08,00,00,FF,FF,04,00,
78696745,000000BE,false,Rx,0,5,5F,FF,FF,FF,FF,00,00,00,
78698742,000000C4,false,Rx,0,7,00,80,FD,00,80,FF,F6,00,
78700757,000000C8,false,Rx,0,6,00,80,FD,00,80,F2,00,00,
78702803,000000CE,false,Rx,0,8,00,00,00,00,00,00,00,00,
78704801,0000019E,false,Rx,0,8,00,ED,40,FC,F0,43,00,FE,
78706799,000001A0,false,Rx,0,8,00,80,01,E0,FE,F2,4F,45,
78708798,00000130,false,Rx,0,5,00,02,34,3F,FE,00,00,00,
78718799,000000FD,false,Rx,0,3,FF,FF,FF,00,00,00,00,00,
78718817,000000FC,false,Rx,0,3,FF,FF,FF,00,00,00,00,00,
78728755,00000480,false,Rx,0,8,40,42,FF,01,FF,FF,FF,FF,
78749726,000001D0,false,Rx,0,8,44,FF,47,C6,00,00,3D,00,
78754714,000001FC,false,Rx,0,2,A3,03,00,00,00,00,00,00,
78761710,000001A6,false,Rx,0,8,00,00,00,00,00,00,E4,F9,
78787684,00000242,false,Rx,0,3,3F,FC,FF,00,00,00,00,00,
78792683,000000A8,false,Rx,0,8,BD,03,00,00,00,0F,03,00,
78794684,000000AA,false,Rx,0,8,B1,03,00,00,FF,FF,04,00,
78802652,000000CE,false,Rx,0,8,00,00,00,00,00,00,00,00,
78806673,000001A0,false,Rx,0,8,00,80,01,E0,FE,F4,9F,97,
78808656,00000130,false,Rx,0,5,00,02,34,3F,00,00,00,00,
78812667,000004C0,false,Rx,0,8,41,42,FF,FF,FF,FF,FF,FF,
78818659,000000FD,false,Rx,0,3,FF,FF,FF,00,00,00,00,00,
78818675,000000FC,false,Rx,0,3,FF,FF,FF,00,00,00,00,00,
78844638,000000C0,false,Rx,0,2,F4,FF,00,00,00,00,00,00,
78849632,000001D0,false,Rx,0,8,44,FF,48,C6,00,00,3D,00,
78861617,000001A6,false,Rx,0,8,00,00,00,00,00,00,74,FB,
78870653,00000580,false,Rx,0,8,04,11,04,01,05,FF,00,F0,
78871650,000001D2,false,Rx,0,6,F0,0F,FF,4C,F0,FF,00,00,
78892647,000000A8,false,Rx,0,8,C7,0D,00,00,00,0F,03,00,
78894645,000000AA,false,Rx,0,8,BB,0D,00,00,FF,FF,04,00,
78896640,000000BE,false,Rx,0,5,0F,FF,FF,FF,FF,00,00,00,
78898640,000000C4,false,Rx,0,7,00,80,FD,00,80,FF,F6,00,
78900636,000004C1,false,Rx,0,8,43,52,FE,FF,FF,FF,FF,FF,
78901639,000000C8,false,Rx,0,6,00,80,FD,00,80,12,00,00,
78902636,000000CE,false,Rx,0,8,00,00,00,00,00,00,00,00,
78904634,0000019E,false,Rx,0,8,00,ED,E0,FC,F0,43,00,9F,
78906632,000001A0,false,Rx,0,8,00,80,01,E0,FE,F4,EF,E7,
78908629,0000026E,false,Rx,0,8,00,00,00,50,FF,FF,FF,FF,
78909630,000001FE,false,Rx,0,2,FF,00,00,00,00,00,00,00,
78910578,00000130,false,Rx,0,5,00,02,34,3F,11,00,00,00,
78912579,00000304,false,Rx,0,2,E3,FF,00,00,00,00,00,00,
78918623,000000FD,false,Rx,0,3,FF,FF,FF,00,00,00,00,00,
78918643,000000FC,false,Rx,0,3,FF,FF,FF,00,00,00,00,00,
78944598,000002CA,false,Rx,0,2,79,FF,00,00,00,00,00,00,
78947598,00000242,false,Rx,0,3,3F,FC,FF,00,00,00,00,00,
78949595,000001D0,false,Rx,0,8,44,FF,49,C6,00,00,3D,00,
78954590,000001FC,false,Rx,0,2,A4,03,00,00,00,00,00,00,
78961583,000001A6,false,Rx,0,8,00,00,00,00,00,00,04,FD,
78969577,000001B6,false,Rx,0,7,FF,FF,3C,00,00,00,00,00,
78991501,000004C3,false,Rx,0,8,44,52,FF,FF,FF,FF,FF,FF,
78993556,000000A8,false,Rx,0,8,C2,08,00,00,00,0F,03,00,
78994555,000000AA,false,Rx,0,8,B6,08,00,00,FF,FF,04,00,
79002547,000000CE,false,Rx,0,8,00,00,00,00,00,00,00,00,
79006542,000001A0,false,Rx,0,8,00,80,01,E0,FE,F2,4F,45,
79008543,00000130,false,Rx,0,5,00,02,34,3F,22,00,00,00,
79018533,000000FD,false,Rx,0,3,FF,FF,FF,00,00,00,00,00,
79018553,000000FC,false,Rx,0,3,FF,FF,FF,00,00,00,00,00,
79044509,000000C0,false,Rx,0,2,F5,FF,00,00,00,00,00,00,
79049503,000001D0,false,Rx,0,8,44,FF,4A,C6,00,00,3D,00,
79061461,000001A6,false,Rx,0,8,00,00,00,00,00,00,94,FE,
79064441,000001B5,false,Rx,0,6,FF,FF,02,00,08,FF,00,00,
79071516,000001D2,false,Rx,0,6,F0,0F,FF,5C,F0,FF,00,00,
79081476,000004C4,false,Rx,0,8,45,52,FF,01,FF,FF,FF,FF,
79092467,000000A8,false,Rx,0,8,BD,03,00,00,00,0F,03,00,
79094464,000000AA,false,Rx,0,8,B1,03,00,00,FF,FF,04,00,
79096426,000000BE,false,Rx,0,5,AF,FF,FF,FF,FF,00,00,00,
79098423,000000C4,false,Rx,0,7,00,80,FD,00,80,FF,F6,00,
79100408,000000C8,false,Rx,0,6,00,80,FD,00,80,32,00,00,
79102380,000000CE,false,Rx,0,8,00,00,00,00,00,00,00,00,
79105385,0000019E,false,Rx,0,8,00,ED,90,FC,F0,43,00,4F,
79106379,000001A0,false,Rx,0,8,00,80,01,E0,FE,F4,9F,97,
79107397,00000242,false,Rx,0,3,3F,FC,FF,00,00,00,00,00,
79108378,00000130,false,Rx,0,5,00,02,34,3F,33,00,00,00,
79118444,000000FD,false,Rx,0,3,FF,FF,FF,00,00,00,00,00,
79118462,000000FC,false,Rx,0,3,FF,FF,FF,00,00,00,00,00,
79142376,000005E7,false,Rx,0,8,01,01,AA,FF,FF,FF,FF,FF,
79149364,000001D0,false,Rx,0,8,44,FF,4B,C6,00,00,3D,00,
79154359,000001FC,false,Rx,0,2,A5,03,00,00,00,00,00,00,
79161346,000001A6,false,Rx,0,8,00,00,00,00,00,00,24,F0,
79166345,000004C5,false,Rx,0,8,60,52,FF,FF,FF,FF,FF,FF,
79192315,000000A8,false,Rx,0,8,C7,0D,00,00,00,0F,03,00,
79194298,000000AA,false,Rx,0,8,BB,0D,00,00,FF,FF,04,00,
79202357,000000CE,false,Rx,0,8,00,00,00,00,00,00,00,00,
79206355,000001A0,false,Rx,0,8,00,80,01,E0,FE,F4,EF,E7,
79208325,00000130,false,Rx,0,5,00,02,34,3F,44,00,00,00,
79218353,000000FD,false,Rx,0,3,FF,FF,FF,00,00,00,00,00,
79218373,000000FC,false,Rx,0,3,FF,FF,FF,00,00,00,00,00,
79244275,000000C0,false,Rx,0,2,F6,FF,00,00,00,00,00,00,
79250326,000001D0,false,Rx,0,8,44,FF,4C,C6,00,00,3D,00,
79260318,000001A6,false,Rx,0,8,00,00,00,00,00,00,B4,F1,
79265315,000004E0,false,Rx,0,8,62,52,FF,01,FF,FF,FF,FF,
79265334,000001D6,false,Rx,0,2,C0,00,00,00,00,00,00,00,
79266310,000001EA,false,Rx,0,2,F0,FF,00,00,00,00,00,00,
79267309,000001EE,false,Rx,0,2,00,FF,00,00,00,00,00,00,
79267328,000002A6,false,Rx,0,2,00,FC,00,00,00,00,00,00,
79271258,000001D2,false,Rx,0,6,F0,0F,FF,6C,F0,FF,00,00,
79292287,000000A8,false,Rx,0,8,C2,08,00,00,00,0F,03,00,
79294287,000000AA,false,Rx,0,8,B6,08,00,00,FF,FF,04,00,
79296284,000000BE,false,Rx,0,5,5F,FF,FF,FF,FF,00,00,00,
79298284,000000C4,false,Rx,0,7,00,80,FD,00,80,FF,F6,00,
79300280,000000C8,false,Rx,0,6,00,80,FD,00,80,52,00,00,
79302264,000000CE,false,Rx,0,8,00,00,00,00,00,00,00,00,
79305328,0000019E,false,Rx,0,8,00,ED,40,FC,F0,43,00,FE,
79306275,000001A0,false,Rx,0,8,00,80,FA,DF,FE,F4,4F,40,
79308239,00000130,false,Rx,0,5,00,02,34,3F,55,00,00,00,
79318255,000000FD,false,Rx,0,3,FF,FF,FF,00,00,00,00,00,
79318270,000000FC,false,Rx,0,3,FF,FF,FF,00,00,00,00,00,
79346201,000004E2,false,Rx,0,8,64,42,FF,01,FF,FF,FF,FF,
79350186,000001D0,false,Rx,0,8,44,FF,4D,C6,00,00,3D,00,
79354187,000001FC,false,Rx,0,2,A6,03,00,00,00,00,00,00,
79360212,000001A6,false,Rx,0,8,00,00,00,00,00,00,44,F3,
79392153,000000A8,false,Rx,0,8,BD,03,00,00,00,0F,03,00,
79394185,000000AA,false,Rx,0,8,B1,03,00,00,FF,FF,04,00,
79402178,000000CE,false,Rx,0,8,00,00,00,00,00,00,00,00,
79406188,000001A0,false,Rx,0,8,00,80,01,E0,FE,F4,9F,97,
79408184,00000130,false,Rx,0,5,00,02,34,3F,66,00,00,00,
79418176,000000FD,false,Rx,0,3,FF,FF,FF,00,00,00,00,00,
79418193,000000FC,false,Rx,0,3,FF,FF,FF,00,00,00,00,00,
79442153,000004E4,false,Rx,0,8,65,52,FF,01,FF,FF,FF,FF,
79444153,000000C0,false,Rx,0,2,F7,FF,00,00,00,00,00,00,
79450147,000001D0,false,Rx,0,8,44,FF,4E,C6,00,00,3D,00,
79460139,000001A6,false,Rx,0,8,00,00,00,00,00,00,D4,F4,
79471130,000001D2,false,Rx,0,6,F0,0F,FF,7C,F0,FF,00,00,
79492111,000000A8,false,Rx,0,8,C7,0D,00,00,00,0F,03,00,
79494111,000000AA,false,Rx,0,8,BB,0D,00,00,FF,FF,04,00,
79496107,000000BE,false,Rx,0,5,0F,FF,FF,FF,FF,00,00,00,
79498106,000000C4,false,Rx,0,7,00,80,FD,00,80,FF,F6,00,
79500104,000000C8,false,Rx,0,6,00,80,FD,00,80,4A,00,00,
79502103,000000CE,false,Rx,0,8,00,00,00,00,00,00,00,00,
79505100,0000019E,false,Rx,0,8,00,ED,E0,FC,F0,43,00,9F,
79506100,000001A0,false,Rx,0,8,00,80,01,E0,FE,F4,EF,E7,
79508100,00000130,false,Rx,0,5,00,02,34,3F,77,00,00,00,
79518091,000000FD,false,Rx,0,3,FF,FF,FF,00,00,00,00,00,
79518109,000000FC,false,Rx,0,3,FF,FF,FF,00,00,00,00,00,
79536076,000004E5,false,Rx,0,8,67,52,FF,01,FF,FF,FF,FF,
79550062,000001D0,false,Rx,0,8,44,FF,40,C6,00,00,3D,00,
79554060,000001FC,false,Rx,0,2,A7,03,00,00,00,00,00,00,
79560053,000001A6,false,Rx,0,8,00,00,00,00,00,00,64,F6,
79592029,000000A8,false,Rx,0,8,C2,08,00,00,00,0F,03,00,
79594027,000000AA,false,Rx,0,8,B6,08,00,00,FF,FF,04,00,
79602017,000000CE,false,Rx,0,8,00,00,00,00,00,00,00,00,
79606014,000001A0,false,Rx,0,8,00,80,FD,EF,FE,F4,4F,53,
79608017,00000130,false,Rx,0,5,00,02,34,3F,88,00,00,00,
79618005,000000FD,false,Rx,0,3,FF,FF,FF,00,00,00,00,00,
79618023,000000FC,false,Rx,0,3,FF,FF,FF,00,00,00,00,00,
79623001,000004E7,false,Rx,0,8,6D,52,FF,01,FF,FF,FF,FF,
79643985,000000C0,false,Rx,0,2,F8,FF,00,00,00,00,00,00,
79650977,000001D0,false,Rx,0,8,44,FF,41,C6,00,00,3D,00,
79660968,000001A6,false,Rx,0,8,00,00,00,00,00,00,F4,F7,
79670959,000001D2,false,Rx,0,6,F0,0F,FF,8C,F0,FF,00,00,
79671961,00000328,false,Rx,0,6,77,AC,1D,00,16,20,00,00,
79691942,000000A8,false,Rx,0,8,BD,03,00,00,00,0F,03,00,
79693940,000000AA,false,Rx,0,8,B1,03,00,00,FF,FF,04,00,
79695940,000000BE,false,Rx,0,5,AF,FF,FF,FF,FF,00,00,00,
79697939,000000C4,false,Rx,0,7,00,80,FD,00,80,FF,F6,00,
79699935,000000C8,false,Rx,0,6,00,80,FD,00,80,92,00,00,
79701933,000000CE,false,Rx,0,8,00,00,00,00,00,00,00,00,
79703932,0000019E,false,Rx,0,8,00,ED,90,FC,F0,43,00,4F,
79705929,000001A0,false,Rx,0,8,00,80,01,E0,FE,F4,9F,97,
79707928,00000130,false,Rx,0,5,00,02,34,3F,99,00,00,00,
79711927,000004ED,false,Rx,0,8,6E,52,FF,01,FF,FF,FF,FF,
79717920,000000FD,false,Rx,0,3,FF,FF,FF,00,00,00,00,00,
79717938,000000FC,false,Rx,0,3,FF,FF,FF,00,00,00,00,00,
79751893,000001D0,false,Rx,0,8,44,FF,42,C6,00,00,3D,00,
79753889,000001FC,false,Rx,0,2,A8,03,00,00,00,00,00,00,
79759884,000001A6,false,Rx,0,8,00,00,00,00,00,00,84,F9,
79791859,000000A8,false,Rx,0,8,C7,0D,00,00,00,0F,03,00,
79793856,000000AA,false,Rx,0,8,BB,0D,00,00,FF,FF,04,00,
79795857,000004EE,false,Rx,0,8,70,52,FF,01,FF,FF,FF,FF,
79801849,000000CE,false,Rx,0,8,00,00,00,00,00,00,00,00,
79805847,000001A0,false,Rx,0,8,00,80,01,E0,FE,F4,EF,E7,
79807845,00000130,false,Rx,0,5,00,02,34,3F,BA,00,00,00,
79817838,000000FD,false,Rx,0,3,FF,FF,FF,00,00,00,00,00,
79817856,000000FC,false,Rx,0,3,FF,FF,FF,00,00,00,00,00,
79843816,000000C0,false,Rx,0,2,F9,FF,00,00,00,00,00,00,
79851807,000001D0,false,Rx,0,8,44,FF,43,C6,00,00,3D,00,
79860799,000001A6,false,Rx,0,8,00,00,00,00,00,00,14,FB,
79870794,000001D2,false,Rx,0,6,F0,0F,FF,9C,F0,FF,00,00,
79891776,000004F0,false,Rx,0,8,72,52,FF,01,00,30,84,00,
79892773,000000A8,false,Rx,0,8,C2,08,00,00,00,0F,03,00,
79893771,000000AA,false,Rx,0,8,B6,08,00,00,FF,FF,04,00,
79895773,000000BE,false,Rx,0,5,5F,FF,FF,FF,FF,00,00,00,
79897771,000000C4,false,Rx,0,7,00,80,FD,00,80,FF,F6,00,
79899767,000000C8,false,Rx,0,6,00,80,FD,00,80,B2,00,00,
79901768,000000CE,false,Rx,0,8,00,00,00,00,00,00,00,00,
79903763,0000019E,false,Rx,0,8,00,ED,40,FC,F0,43,00,FE,
79905760,000001A0,false,Rx,0,8,00,80,01,E0,FE,F4,4F,47,
79907762,00000130,false,Rx,0,5,00,02,34,3F,CB,00,00,00,
79907780,000001FE,false,Rx,0,2,FF,00,00,00,00,00,00,00,
79909758,000002FA,false,Rx,0,5,FC,04,FF,FF,FF,00,00,00,
79911761,00000304,false,Rx,0,2,E3,FF,00,00,00,00,00,00,
79917750,000000FD,false,Rx,0,3,FF,FF,FF,00,00,00,00,00,
79917768,000000FC,false,Rx,0,3,FF,FF,FF,00,00,00,00,00,
79943730,000002CA,false,Rx,0,2,79,FF,00,00,00,00,00,00,
79951725,000001D0,false,Rx,0,8,44,FF,44,C6,00,00,3D,00,
79953720,000001FC,false,Rx,0,2,A9,03,00,00,00,00,00,00,
79960716,000001A6,false,Rx,0,8,00,00,00,00,00,00,A4,FC,
79970707,000001B6,false,Rx,0,7,FF,FF,3C,00,00,00,00,00,
79979702,000004F2,false,Rx,0,8,73,42,FF,01,00,00,00,00,
79991630,000000A8,false,Rx,0,8,BD,03,00,00,00,0F,03,00,
79993648,000000AA,false,Rx,0,8,B1,03,00,00,FF,FF,04,00,
80001671,000000CE,false,Rx,0,8,00,00,00,00,00,00,00,00,
80005666,000001A0,false,Rx,0,8,00,80,01,D0,FE,F4,9F,87,
80007676,00000130,false,Rx,0,5,00,02,34,3F,DC,00,00,00,
80017666,000000FD,false,Rx,0,3,FF,FF,FF,00,00,00,00,00,
80017684,000000FC,false,Rx,0,3,FF,FF,FF,00,00,00,00,00,
80043646,000000C0,false,Rx,0,2,FA,FF,00,00,00,00,00,00,
80051637,000001D0,false,Rx,0,8,44,FF,45,C6,00,00,3D,00,
80060632,000001A6,false,Rx,0,8,00,00,00,00,00,00,34,FE,
80061630,0000031D,false,Rx,0,2,00,FE,00,00,00,00,00,00,
80063628,000004F3,false,Rx,0,8,78,52,FF,01,FF,FF,FF,FF,
80064630,000001B5,false,Rx,0,6,FF,FF,02,00,08,FF,00,00,
80070623,000001D2,false,Rx,0,6,F0,0F,FF,AC,F0,FF,00,00,
80074621,000005F8,false,Rx,0,8,08,05,00,FE,FF,FF,FF,FF,
80091605,000000A8,false,Rx,0,8,C7,0D,00,00,00,0F,03,00,
80093605,000000AA,false,Rx,0,8,BB,0D,00,00,FF,FF,04,00,
80095544,000000BE,false,Rx,0,5,0F,FF,FF,FF,FF,00,00,00,
80097552,000000C4,false,Rx,0,7,00,80,FD,00,80,FF,F6,00,
80099547,000000C8,false,Rx,0,6,00,80,FD,00,80,D2,00,00,
80101546,000003B3,false,Rx,0,6,F1,FF,FF,7F,00,F1,00,00,
80102540,00000592,false,Rx,0,8,01,03,95,FF,FF,FF,FF,FF,
80103535,000000CE,false,Rx,0,8,00,00,00,00,00,00,00,00,
80104538,0000019E,false,Rx,0,8,00,ED,E0,FC,F0,43,00,9F,
80106573,000001A0,false,Rx,0,8,00,80,01,E0,FE,F7,EF,EA,
80107518,00000395,false,Rx,0,5,0A,08,50,64,FF,00,00,00,
80108608,00000130,false,Rx,0,5,00,02,34,3F,ED,00,00,00,
80117602,000000FD,false,Rx,0,3,FF,FF,FF,00,00,00,00,00,
80117620,000000FC,false,Rx,0,3,FF,FF,FF,00,00,00,00,00,
80151553,000001D0,false,Rx,0,8,44,FF,46,C6,00,00,3D,00,
80153553,000001FC,false,Rx,0,2,AA,03,00,00,00,00,00,00,
80154552,000004F8,false,Rx,0,8,00,52,FF,01,FF,FF,FF,FF,
80160549,000001A6,false,Rx,0,8,00,00,00,00,00,00,C4,FF,
80162544,000005E7,false,Rx,0,8,01,01,AA,FF,FF,FF,FF,FF,
80191524,000000A8,false,Rx,0,8,C2,08,00,00,00,0F,03,00,
80193519,000000AA,false,Rx,0,8,B6,08,00,00,FF,FF,04,00,
80201515,000003B4,false,Rx,0,8,FF,FF,09,FF,FF,FF,FF,FF,
80202511,000000CE,false,Rx,0,8,00,00,00,00,00,00,00,00,
80205509,000001A0,false,Rx,0,8,00,80,01,E0,FE,F4,4F,47,
80207507,00000130,false,Rx,0,5,00,02,34,3F,FE,00,00,00,
80217500,000000FD,false,Rx,0,3,FF,FF,FF,00,00,00,00,00,
80217517,000000FC,false,Rx,0,3,FF,FF,FF,00,00,00,00,00,
80227491,00000480,false,Rx,0,8,40,42,FF,01,FF,FF,FF,FF,
80243478,000000C0,false,Rx,0,2,FB,FF,00,00,00,00,00,00,
80251472,000001D0,false,Rx,0,8,44,FF,47,C6,00,00,3D,00,
80259463,000001A6,false,Rx,0,8,00,00,00,00,00,00,54,F1,
80265458,000001D6,false,Rx,0,2,C0,00,00,00,00,00,00,00,
80266456,000001EA,false,Rx,0,2,F0,FF,00,00,00,00,00,00,
80266475,000001EE,false,Rx,0,2,00,FF,00,00,00,00,00,00,
80267457,000002A6,false,Rx,0,2,00,FC,00,00,00,00,00,00,
80270458,000001D2,false,Rx,0,6,F0,0F,FF,BC,F0,FF,00,00,
80291436,000000A8,false,Rx,0,8,BD,03,00,00,00,0F,03,00,
80293434,000000AA,false,Rx,0,8,B1,03,00,00,FF,FF,04,00,
80295433,000000BE,false,Rx,0,5,AF,FF,FF,FF,FF,00,00,00,
80297430,000000C4,false,Rx,0,7,00,80,FD,00,80,FF,F6,00,
80299427,000000C8,false,Rx,0,6,00,80,FD,00,80,F2,00,00,
80300430,00000598,false,Rx,0,8,40,F8,00,15,FF,FF,FF,FF,
80302426,000000CE,false,Rx,0,8,00,00,00,00,00,00,00,00,
80304424,0000019E,false,Rx,0,8,00,ED,90,FC,F0,43,00,4F,
80305425,000001A0,false,Rx,0,8,00,80,01,E0,FE,F4,9F,97,
80307421,00000130,false,Rx,0,5,00,02,34,3F,00,00,00,00,
80311418,000004C0,false,Rx,0,8,41,42,FF,01,00,01,FA,00,
80317415,000000FD,false,Rx,0,3,FF,FF,FF,00,00,00,00,00,
80317432,000000FC,false,Rx,0,3,FF,FF,FF,00,00,00,00,00,
80351386,000001D0,false,Rx,0,8,44,FF,48,C6,00,00,3D,00,
80353384,000001FC,false,Rx,0,2,AB,03,00,00,00,00,00,00,
80360378,000001A6,false,Rx,0,8,00,00,00,00,00,00,E4,F2,
80391354,000000A8,false,Rx,0,8,C6,0C,00,00,00,0F,03,00,
80393351,000000AA,false,Rx,0,8,BB,0D,00,00,FF,FF,04,00,
80401344,000000CE,false,Rx,0,8,00,00,00,00,00,00,00,00,
80403342,000004C1,false,Rx,0,8,43,52,FE,01,FF,FF,FF,FF,
80405341,000001A0,false,Rx,0,8,00,80,01,E0,FE,F4,EF,E7,
80407338,00000130,false,Rx,0,5,00,02,34,3F,11,00,00,00,
80417331,000000FD,false,Rx,0,3,FF,FF,FF,00,00,00,00,00,
80417349,000000FC,false,Rx,0,3,FF,FF,FF,00,00,00,00,00,
80443309,000000C0,false,Rx,0,2,FC,FF,00,00,00,00,00,00,
80452303,000001D0,false,Rx,0,8,44,FF,49,C6,00,00,3D,00,
80460297,000001A6,false,Rx,0,8,00,00,00,00,00,00,74,F4,
80470286,000001D2,false,Rx,0,6,F0,0F,FF,CC,F0,FF,00,00,
80491270,000000A8,false,Rx,0,8,C1,07,00,00,00,0F,03,00,
80493269,000000AA,false,Rx,0,8,B6,08,00,00,FF,FF,04,00,
80495267,000000BE,false,Rx,0,5,5F,FF,FF,FF,FF,00,00,00,
80497266,000004C3,false,Rx,0,8,44,52,FF,01,FF,FF,FF,FF,
80498266,000000C4,false,Rx,0,7,00,80,FD,00,80,FF,F6,00,
80499262,000000C8,false,Rx,0,6,00,80,FD,00,80,EA,00,00,
80501261,000000CE,false,Rx,0,8,00,00,00,00,00,00,00,00,
80503261,0000019E,false,Rx,0,8,00,ED,40,FC,F0,43,00,FE,
80505258,000001A0,false,Rx,0,8,00,80,01,E0,FE,F7,4F,4A,
80507258,00000130,false,Rx,0,5,00,02,34,3F,22,00,00,00,
80517250,000000FD,false,Rx,0,3,FF,FF,FF,00,00,00,00,00,
80517268,000000FC,false,Rx,0,3,FF,FF,FF,00,00,00,00,00,
80552221,000001D0,false,Rx,0,8,44,FF,4A,C6,00,00,3D,00,
80553222,000001FC,false,Rx,0,2,AC,03,00,00,00,00,00,00,
80560214,000001A6,false,Rx,0,8,00,00,00,00,00,00,04,F6,
80580199,000004C4,false,Rx,0,8,45,52,FF,01,FF,FF,FF,FF,
80591192,000000A8,false,Rx,0,8,BC,02,00,00,00,0F,03,00,
80593191,000000AA,false,Rx,0,8,B1,03,00,00,FF,FF,04,00,
80601183,000000CE,false,Rx,0,8,00,00,00,00,00,00,00,00,
80605180,000001A0,false,Rx,0,8,00,80,01,E0,FE,F4,9F,97,
80607177,00000130,false,Rx,0,5,00,02,34,3F,33,00,00,00,
80617169,000000FD,false,Rx,0,3,FF,FF,FF,00,00,00,00,00,
80617187,000000FC,false,Rx,0,3,FF,FF,FF,00,00,00,00,00,
80643149,000000C0,false,Rx,0,2,FD,FF,00,00,00,00,00,00,
80651142,000005C0,false,Rx,0,8,04,00,32,FF,FF,FF,F4,FF,
80653140,000001D0,false,Rx,0,8,44,FF,4B,C6,00,00,3D,00,
80660134,000001A6,false,Rx,0,8,00,00,00,00,00,00,94,F7,
80665131,000004C5,false,Rx,0,8,60,52,FF,FF,FF,FF,FF,FF,
80670126,000001D2,false,Rx,0,6,F0,0F,FF,DC,F0,FF,00,00,
80671129,00000328,false,Rx,0,6,78,AC,1D,00,16,20,00,00,
80691109,000000A8,false,Rx,0,8,C6,0C,00,00,00,0F,03,00,
80693108,000000AA,false,Rx,0,8,BB,0D,00,00,FF,FF,04,00,
80695087,000000BE,false,Rx,0,5,0F,FF,FF,FF,FF,00,00,00,
80697104,000000C4,false,Rx,0,7,00,80,FD,00,80,FF,F6,00,
80699085,000000C8,false,Rx,0,6,00,80,FD,00,80,0A,00,00,
80701104,000000CE,false,Rx,0,8,00,00,00,00,00,00,00,00,
80704099,0000019E,false,Rx,0,8,00,ED,E0,FC,F0,43,00,9F,
80705101,000001A0,false,Rx,0,8,00,80,01,E0,FE,F7,EF,EA,
80707085,00000130,false,Rx,0,5,00,02,34,3F,44,00,00,00,
80717089,000000FD,false,Rx,0,3,FF,FF,FF,00,00,00,00,00,
80717107,000000FC,false,Rx,0,3,FF,FF,FF,00,00,00,00,00,
80752062,000001D0,false,Rx,0,8,44,FF,4C,C6,00,00,3D,00,
80753061,000001FC,false,Rx,0,2,AD,03,00,00,00,00,00,00,
80760054,000001A6,false,Rx,0,8,00,00,00,00,00,00,24,F9,
80764052,000004E0,false,Rx,0,8,62,52,FF,01,FF,FF,FF,FF,
80791032,000000A8,false,Rx,0,8,C1,07,00,00,00,0F,03,00,
80793028,000000AA,false,Rx,0,8,B6,08,00,00,FF,FF,04,00,
80801022,000000CE,false,Rx,0,8,00,00,00,00,00,00,00,00,
80805019,000001A0,false,Rx,0,8,00,80,01,E0,FE,F2,4F,45,
80807014,00000130,false,Rx,0,5,00,02,34,3F,55,00,00,00,
80817008,000000FD,false,Rx,0,3,FF,FF,FF,00,00,00,00,00,
80817026,000000FC,false,Rx,0,3,FF,FF,FF,00,00,00,00,00,
80842991,000000C0,false,Rx,0,2,FE,FF,00,00,00,00,00,00,
80852979,000001D0,false,Rx,0,8,44,FF,4D,C6,00,00,3D,00,
80854978,000004E2,false,Rx,0,8,64,42,FF,01,FF,FF,FF,FF,
80859974,000001A6,false,Rx,0,8,00,00,00,00,00,00,B4,FA,
80868968,00000580,false,Rx,0,8,04,11,04,01,05,FF,00,F0,
80870968,000001D2,false,Rx,0,6,F0,0F,FF,EC,F0,FF,00,00,
80890949,000000A8,false,Rx,0,8,BC,02,00,00,00,0F,03,00,
80892946,000000AA,false,Rx,0,8,B1,03,00,00,FF,FF,04,00,
80894947,000000BE,false,Rx,0,5,AF,FF,FF,FF,FF,00,00,00,
80896943,000000C4,false,Rx,0,7,00,80,FD,00,80,FF,F6,00,
80898942,000000C8,false,Rx,0,6,00,80,FD,00,80,52,00,00,
80900940,000000CE,false,Rx,0,8,00,00,00,00,00,00,00,00,
80903940,0000019E,false,Rx,0,8,00,ED,90,FC,F0,43,00,4F,
80904939,000001A0,false,Rx,0,8,00,80,01,E0,FE,F4,9F,97,
80906935,0000026E,false,Rx,0,8,00,00,00,50,FF,FF,FF,FF,
80907937,000001FE,false,Rx,0,2,FF,00,00,00,00,00,00,00,
80908934,00000130,false,Rx,0,5,00,02,34,3F,66,00,00,00,
80910933,00000304,false,Rx,0,2,E3,FF,00,00,00,00,00,00,
80916928,000000FD,false,Rx,0,3,FF,FF,FF,00,00,00,00,00,
80916946,000000FC,false,Rx,0,3,FF,FF,FF,00,00,00,00,00,
80942910,000002CA,false,Rx,0,2,79,FF,00,00,00,00,00,00,
80952901,000001D0,false,Rx,0,8,44,FF,4E,C6,00,00,3D,00,
80953898,000001FC,false,Rx,0,2,AE,03,00,00,00,00,00,00,
80955896,000004E4,false,Rx,0,8,65,52,FF,01,FF,FF,FF,FF,
80959894,000001A6,false,Rx,0,8,00,00,00,00,00,00,44,FC,
80972884,000001B6,false,Rx,0,7,FF,FF,3C,00,00,00,00,00,
80990818,000000A8,false,Rx,0,8,C6,0C,00,00,00,0F,03,00,
80992809,000000AA,false,Rx,0,8,BA,0C,00,00,FF,FF,04,00,
81000861,000000CE,false,Rx,0,8,00,00,00,00,00,00,00,00,
81004858,000001A0,false,Rx,0,8,00,80,FD,EF,FE,F4,EF,F3,
81006856,00000130,false,Rx,0,5,00,02,34,3F,77,00,00,00,
81016849,000000FD,false,Rx,0,3,FF,FF,FF,00,00,00,00,00,
81016866,000000FC,false,Rx,0,3,FF,FF,FF,00,00,00,00,00,
81042828,000000C0,false,Rx,0,2,F0,FF,00,00,00,00,00,00,
81052822,000001D0,false,Rx,0,8,44,FF,40,C6,00,00,3D,00,
81054817,000004E5,false,Rx,0,8,67,52,FF,01,FF,FF,FF,FF,
81059811,000001A6,false,Rx,0,8,00,00,00,00,00,00,D4,FD,
81062812,000001B5,false,Rx,0,6,FF,FF,02,00,08,FF,00,00,
81069804,000001D2,false,Rx,0,6,F0,0F,FF,0C,F0,FF,00,00,
81090791,000000A8,false,Rx,0,8,C1,07,00,00,00,0F,03,00,
81092787,000000AA,false,Rx,0,8,B5,07,00,00,FF,FF,04,00,
81094785,000000BE,false,Rx,0,5,5F,FF,FF,FF,FF,00,00,00,
81096785,000000C4,false,Rx,0,7,00,80,FD,00,80,FF,F6,00,
81098783,000000C8,false,Rx,0,6,00,80,FD,00,80,72,00,00,
81100786,000000CE,false,Rx,0,8,00,00,00,00,00,00,00,00,
81102779,0000019E,false,Rx,0,8,00,ED,40,FC,F0,43,00,FE,
81104778,000001A0,false,Rx,0,8,00,80,01,E0,FE,F7,4F,4A,
81106776,00000130,false,Rx,0,5,00,02,34,3F,88,00,00,00,
81116767,000000FD,false,Rx,0,3,FF,FF,FF,00,00,00,00,00,
81116785,000000FC,false,Rx,0,3,FF,FF,FF,00,00,00,00,00,
81143750,000004E7,false,Rx,0,8,6D,52,FF,01,FF,FF,FF,FF,
81152740,000001D0,false,Rx,0,8,44,FF,41,C6,00,00,3D,00,
81153740,000001FC,false,Rx,0,2,A0,03,00,00,00,00,00,00,
81159733,000001A6,false,Rx,0,8,00,00,00,00,00,00,64,FF,
81183714,000005E7,false,Rx,0,8,01,01,AA,FF,FF,FF,FF,FF,
81190709,000000A8,false,Rx,0,8,BC,02,00,00,00,0F,03,00,
81192708,000000AA,false,Rx,0,8,B0,02,00,00,FF,FF,04,00,
81200703,000000CE,false,Rx,0,8,00,00,00,00,00,00,00,00,
81204697,000001A0,false,Rx,0,8,00,80,01,E0,FE,F7,9F,9A,
81206695,00000130,false,Rx,0,5,00,02,34,3F,99,00,00,00,
81216692,000000FD,false,Rx,0,3,FF,FF,FF,00,00,00,00,00,
81216710,000000FC,false,Rx,0,3,FF,FF,FF,00,00,00,00,00,
81242669,000000C0,false,Rx,0,2,F1,FF,00,00,00,00,00,00,
81246664,000004ED,false,Rx,0,8,6E,52,FF,01,FF,FF,FF,FF,
81254660,000001D0,false,Rx,0,8,45,FF,42,C6,00,00,3D,00,
81259654,000001A6,false,Rx,0,8,00,00,00,00,00,00,F4,F0,
81264649,000001D6,false,Rx,0,2,C0,00,00,00,00,00,00,00,
81265647,000001EA,false,Rx,0,2,F0,FF,00,00,00,00,00,00,
81265665,000001EE,false,Rx,0,2,00,FF,00,00,00,00,00,00,
81266649,000002A6,false,Rx,0,2,00,FC,00,00,00,00,00,00,
81269646,000001D2,false,Rx,0,6,F0,0F,FF,1C,F0,FF,00,00,
81290629,000000A8,false,Rx,0,8,C6,0C,00,00,00,0F,03,00,
81292627,000000AA,false,Rx,0,8,BA,0C,00,00,FF,FF,04,00,
81294625,000000BE,false,Rx,0,5,0F,FF,FF,FF,FF,00,00,00,
81296623,000000C4,false,Rx,0,7,00,80,FD,00,80,FF,F6,00,
81298622,000000C8,false,Rx,0,6,00,80,FD,00,80,92,00,00,
81300620,000000CE,false,Rx,0,8,00,00,00,00,00,00,00,00,
81303617,0000019E,false,Rx,0,8,00,ED,E0,FC,F0,43,00,9F,
81304616,000001A0,false,Rx,0,8,00,80,FD,EF,FE,F7,EF,F6,
81306615,00000130,false,Rx,0,5,00,02,34,3F,BA,00,00,00,
81316606,000000FD,false,Rx,0,3,FF,FF,FF,00,00,00,00,00,
81316624,000000FC,false,Rx,0,3,FF,FF,FF,00,00,00,00,00,
81330598,000004EE,false,Rx,0,8,70,52,FF,01,FF,FF,FF,FF,
81352580,000001FC,false,Rx,0,2,A1,03,00,00,00,00,00,00,
81353580,000001D0,false,Rx,0,8,45,FF,43,C6,00,00,3D,00,
81358575,000001A6,false,Rx,0,8,00,00,00,00,00,00,84,F2,
81390548,000000A8,false,Rx,0,8,C1,07,00,00,00,0F,03,00,
81393545,000000AA,false,Rx,0,8,B5,07,00,00,FF,FF,04,00,
81401538,000000CE,false,Rx,0,8,00,00,00,00,00,00,00,00,
81404538,000001A0,false,Rx,0,8,00,80,01,E0,FE,F7,4F,4A,
81406534,00000130,false,Rx,0,5,00,02,34,3F,CB,00,00,00,
81416529,000000FD,false,Rx,0,3,FF,FF,FF,00,00,00,00,00,
81416547,000000FC,false,Rx,0,3,FF,FF,FF,00,00,00,00,00,
81430518,000004F0,false,Rx,0,8,72,52,FF,01,00,30,84,00,
81442508,000000C0,false,Rx,0,2,F2,FF,00,00,00,00,00,00,
81453502,000001D0,false,Rx,0,8,45,FF,44,C6,00,00,3D,00,
81459495,000001A6,false,Rx,0,8,00,00,00,00,00,00,14,F4,
81469487,000001D2,false,Rx,0,6,F0,0F,FF,2C,F0,FF,00,00,
81490473,000000A8,false,Rx,0,8,BC,02,00,00,00,0F,03,00,
81493471,000000AA,false,Rx,0,8,B0,02,00,00,FF,FF,04,00,
81494468,000000BE,false,Rx,0,5,AF,FF,FF,FF,FF,00,00,00,
81496467,000000C4,false,Rx,0,7,00,80,FD,00,80,FF,F6,00,
81498463,000000C8,false,Rx,0,6,00,80,FD,00,80,8A,00,00,
81500463,000000CE,false,Rx,0,8,00,00,00,00,00,00,00,00,
81502465,0000019E,false,Rx,0,8,00,ED,90,FC,F0,43,00,4F,
81504462,000001A0,false,Rx,0,8,00,80,01,E0,FE,F4,9F,97,
81506462,00000130,false,Rx,0,5,00,02,34,3F,DC,00,00,00,
81516451,000000FD,false,Rx,0,3,FF,FF,FF,00,00,00,00,00,
81516469,000000FC,false,Rx,0,3,FF,FF,FF,00,00,00,00,00,
81519449,000004F2,false,Rx,0,8,73,42,FF,01,00,00,00,00,
81552425,000001FC,false,Rx,0,2,A2,03,00,00,00,00,00,00,
81553422,000001D0,false,Rx,0,8,45,FF,45,C6,00,00,3D,00,
81559417,000001A6,false,Rx,0,8,00,00,00,00,00,00,A4,F5,
81590396,000000A8,false,Rx,0,8,C6,0C,00,00,00,0F,03,00,
81593396,000000AA,false,Rx,0,8,BA,0C,00,00,FF,FF,04,00,
81600388,000000CE,false,Rx,0,8,00,00,00,00,00,00,00,00,
81602387,000004F3,false,Rx,0,8,78,52,FF,01,FF,FF,FF,FF,
81604385,000001A0,false,Rx,0,8,00,80,01,E0,FE,F7,EF,EA,
81606382,00000130,false,Rx,0,5,00,02,34,3F,ED,00,00,00,
81616375,000000FD,false,Rx,0,3,FF,FF,FF,00,00,00,00,00,
81616393,000000FC,false,Rx,0,3,FF,FF,FF,00,00,00,00,00,
81642353,000000C0,false,Rx,0,2,F3,FF,00,00,00,00,00,00,
81654347,000001D0,false,Rx,0,8,45,FF,46,C6,00,00,3D,00,
81658341,000001A6,false,Rx,0,8,00,00,00,00,00,00,34,F7,
81669335,000001D2,false,Rx,0,6,F0,0F,FF,3C,F0,FF,00,00,
81670337,00000328,false,Rx,0,6,79,AC,1D,00,16,20,00,00,
81690319,000000A8,false,Rx,0,8,C1,07,00,00,00,0F,03,00,
81692318,000000AA,false,Rx,0,8,B5,07,00,00,FF,FF,04,00,
81694316,000004F8,false,Rx,0,8,00,52,FF,01,FF,FF,FF,FF,
81695317,000000BE,false,Rx,0,5,5F,FF,FF,FF,FF,00,00,00,
81696316,000000C4,false,Rx,0,7,00,80,FD,00,80,FF,F6,00,
81698313,000000C8,false,Rx,0,6,00,80,FD,00,80,AA,00,00,
81700311,000000CE,false,Rx,0,8,00,00,00,00,00,00,00,00,
81703312,0000019E,false,Rx,0,8,00,ED,40,FC,F0,43,00,FE,
81704305,000001A0,false,Rx,0,8,00,80,01,E0,FE,F4,4F,47,
81706306,00000130,false,Rx,0,5,00,02,34,3F,FE,00,00,00,
81716299,000000FD,false,Rx,0,3,FF,FF,FF,00,00,00,00,00,
81716317,000000FC,false,Rx,0,3,FF,FF,FF,00,00,00,00,00,
81752273,000001FC,false,Rx,0,2,A3,03,00,00,00,00,00,00,
81754271,000001D0,false,Rx,0,8,45,FF,47,C6,00,00,3D,00,
81759269,000001A6,false,Rx,0,8,00,00,00,00,00,00,C4,F8,
81766261,00000480,false,Rx,0,8,40,42,FF,01,FF,FF,FF,FF,
81790192,000000A8,false,Rx,0,8,BC,02,00,00,00,0F,03,00,
81793192,000000AA,false,Rx,0,8,B0,02,00,00,FF,FF,04,00,
81800252,000000CE,false,Rx,0,8,00,00,00,00,00,00,00,00,
81804223,000001A0,false,Rx,0,8,00,80,01,E0,FE,F4,9F,97,
81806220,00000130,false,Rx,0,5,00,02,34,3F,00,00,00,00,
81816251,000000FD,false,Rx,0,3,FF,FF,FF,00,00,00,00,00,
81817220,000000FC,false,Rx,0,3,FF,FF,FF,00,00,00,00,00,
81842205,000000C0,false,Rx,0,2,F4,FF,00,00,00,00,00,00,
81850198,000004C0,false,Rx,0,8,41,42,FF,01,00,01,FA,00,
81854194,000001D0,false,Rx,0,8,45,FF,48,C6,00,00,3D,00,
81859189,000001A6,false,Rx,0,8,00,00,00,00,00,00,54,FA,
81869181,000001D2,false,Rx,0,6,F0,0F,FF,4C,F0,FF,00,00,
81890166,000000A8,false,Rx,0,8,C6,0C,00,00,00,0F,03,00,
81893166,000000AA,false,Rx,0,8,BA,0C,00,00,FF,FF,04,00,
81894163,000000BE,false,Rx,0,5,0F,FF,FF,FF,FF,00,00,00,
81896160,000000C4,false,Rx,0,7,00,80,FD,00,80,FF,F6,00,
81898158,000000C8,false,Rx,0,6,00,80,FD,00,80,CA,00,00,
81900157,000000CE,false,Rx,0,8,00,00,00,00,00,00,00,00,
81903153,0000019E,false,Rx,0,8,00,ED,E0,FC,F0,43,00,9F,
81904157,000001A0,false,Rx,0,8,00,80,01,E0,FE,F4,EF,E7,
81906152,00000130,false,Rx,0,5,00,02,34,3F,11,00,00,00,
81906170,000001FE,false,Rx,0,2,FF,00,00,00,00,00,00,00,
81910150,00000304,false,Rx,0,2,E3,FF,00,00,00,00,00,00,
81916145,000000FD,false,Rx,0,3,FF,FF,FF,00,00,00,00,00,
81917147,000000FC,false,Rx,0,3,FF,FF,FF,00,00,00,00,00,
81942124,000002CA,false,Rx,0,2,79,FF,00,00,00,00,00,00,
81946122,000004C1,false,Rx,0,8,43,52,FE,01,FF,FF,FF,FF,
81952119,000001FC,false,Rx,0,2,A4,03,00,00,00,00,00,00,
81954118,000001D0,false,Rx,0,8,45,FF,49,C6,00,00,3D,00,
81959114,000001A6,false,Rx,0,8,00,00,00,00,00,00,E4,FB,
81974101,000001B6,false,Rx,0,7,FF,FF,3C,00,00,00,00,00,
81990139,000000A8,false,Rx,0,8,C1,07,00,00,00,0F,03,00,
81993038,000000AA,false,Rx,0,8,B5,07,00,00,FF,FF,04,00,
82001071,000000CE,false,Rx,0,8,00,00,00,00,00,00,00,00,
82004069,000001A0,false,Rx,0,8,00,80,01,E0,FE,F4,4F,47,
82006076,00000130,false,Rx,0,5,00,02,34,3F,22,00,00,00,
82016068,000000FD,false,Rx,0,3,FF,FF,FF,00,00,00,00,00,
82017071,000000FC,false,Rx,0,3,FF,FF,FF,00,00,00,00,00,
82019083,000005E2,false,Rx,0,8,01,02,3A,FF,FF,FF,FF,FF,
82021065,000005E2,false,Rx,0,8,01,02,3A,FF,FF,FF,FF,FF,
82026062,0000023A,false,Rx,0,4,11,FF,FF,FF,00,00,00,00,
82042049,000000C0,false,Rx,0,2,F5,FF,00,00,00,00,00,00,
82043050,000004C3,false,Rx,0,8,44,52,FF,01,FF,FF,FF,FF,
82055047,000001D0,false,Rx,0,8,45,FF,4A,C6,00,00,3D,00,
82059035,000001A6,false,Rx,0,8,00,00,00,00,00,00,74,FD,
82060035,000005E2,false,Rx,0,8,01,03,80,FF,FF,FF,FF,FF,
82062033,000001B5,false,Rx,0,6,FF,FF,02,00,08,FF,00,00,
82066031,00000380,false,Rx,0,7,42,31,31,36,38,30,36,00,
82069029,000001D2,false,Rx,0,6,F0,0F,FF,5C,F0,FF,00,00,
82091010,000000A8,false,Rx,0,8,BC,02,00,00,00,0F,03,00,
82093012,000000AA,false,Rx,0,8,B0,02,00,00,FF,FF,04,00,
82094009,000000BE,false,Rx,0,5,AF,FF,FF,FF,FF,00,00,00,
82096007,000000C4,false,Rx,0,7,00,80,FD,00,80,FF,F6,00,
82098006,000000C8,false,Rx,0,6,00,80,FD,00,80,12,00,00,
82101004,000000CE,false,Rx,0,8,00,00,00,00,00,00,00,00,
82103000,0000019E,false,Rx,0,8,00,ED,90,FC,F0,43,00,4F,
82104002,000001A0,false,Rx,0,8,00,80,01,E0,FE,F4,9F,97,
82105999,00000130,false,Rx,0,5,00,02,34,3F,33,00,00,00,
82115994,000000FD,false,Rx,0,3,FF,FF,FF,00,00,00,00,00,
82116994,000000FC,false,Rx,0,3,FF,FF,FF,00,00,00,00,00,
82138976,000004C4,false,Rx,0,8,45,52,FF,01,FF,FF,FF,FF,
82151967,000001FC,false,Rx,0,2,A5,03,00,00,00,00,00,00,
82154962,000001D0,false,Rx,0,8,45,FF,4B,C6,00,00,3D,00,
82158958,000001A6,false,Rx,0,8,00,00,00,00,00,00,04,FF,
82189938,000000A8,false,Rx,0,8,C6,0C,00,00,00,0F,03,00,
82192935,000000AA,false,Rx,0,8,BA,0C,00,00,FF,FF,04,00,
82200929,000000CE,false,Rx,0,8,00,00,00,00,00,00,00,00,
82203924,000001A0,false,Rx,0,8,00,80,01,D0,FE,F4,EF,D7,
82205924,000005E7,false,Rx,0,8,01,01,AA,FF,FF,FF,FF,FF,
82206922,00000130,false,Rx,0,5,00,02,34,3F,44,00,00,00,
82215917,000000FD,false,Rx,0,3,FF,FF,FF,00,00,00,00,00,
82216919,000000FC,false,Rx,0,3,FF,FF,FF,00,00,00,00,00,
82225911,000004C5,false,Rx,0,8,60,52,FF,FF,FF,FF,FF,FF,
82241895,000000C0,false,Rx,0,2,F6,FF,00,00,00,00,00,00,
82254885,000001D0,false,Rx,0,8,45,FF,4C,C6,00,00,3D,00,
82258882,000001A6,false,Rx,0,8,00,00,00,00,00,00,94,F0,
82262881,000001D6,false,Rx,0,2,C0,00,00,00,00,00,00,00,
82263880,000001EA,false,Rx,0,2,F0,FF,00,00,00,00,00,00,
82264879,000001EE,false,Rx,0,2,00,FF,00,00,00,00,00,00,
82265880,000002A6,false,Rx,0,2,00,FC,00,00,00,00,00,00,
82268876,000001D2,false,Rx,0,6,F0,0F,FF,6C,F0,FF,00,00,
82289860,000000A8,false,Rx,0,8,C1,07,00,00,00,0F,03,00,
82292857,000000AA,false,Rx,0,8,B5,07,00,00,FF,FF,04,00,
82293859,000000BE,false,Rx,0,5,5F,FF,FF,FF,FF,00,00,00,
82295857,000000C4,false,Rx,0,7,00,80,FD,00,80,FF,F6,00,
82297852,000000C8,false,Rx,0,6,00,80,FD,00,80,32,00,00,
82299853,000000CE,false,Rx,0,8,00,00,00,00,00,00,00,00,
82301850,0000019E,false,Rx,0,8,00,ED,40,FC,F0,43,00,FE,
82303850,000001A0,false,Rx,0,8,00,80,01,E0,FE,F2,4F,45,
82305847,00000130,false,Rx,0,5,00,02,34,3F,55,00,00,00,
82315842,000000FD,false,Rx,0,3,FF,FF,FF,00,00,00,00,00,
82316838,000000FC,false,Rx,0,3,FF,FF,FF,00,00,00,00,00,
82322835,000004E0,false,Rx,0,8,62,52,FF,01,FF,FF,FF,FF,
82351812,000001FC,false,Rx,0,2,A6,03,00,00,00,00,00,00,
82354810,000001D0,false,Rx,0,8,45,FF,4D,C6,00,00,3D,00,
82358806,000001A6,false,Rx,0,8,00,00,00,00,00,00,24,F2,
82389786,000000A8,false,Rx,0,8,BC,02,00,00,00,0F,03,00,
82392782,000000AA,false,Rx,0,8,B0,02,00,00,FF,FF,04,00,
82400775,000000CE,false,Rx,0,8,00,00,00,00,00,00,00,00,
82403774,000001A0,false,Rx,0,8,00,80,FB,DF,FE,F7,9F,94,
82405772,00000130,false,Rx,0,5,00,02,34,3F,66,00,00,00,
82413766,000004E2,false,Rx,0,8,64,42,FF,01,FF,FF,FF,FF,
82415767,000000FD,false,Rx,0,3,FF,FF,FF,00,00,00,00,00,
82416762,000000FC,false,Rx,0,3,FF,FF,FF,00,00,00,00,00,
82441745,000000C0,false,Rx,0,2,F7,FF,00,00,00,00,00,00,
82455734,000001D0,false,Rx,0,8,45,FF,4E,C6,00,00,3D,00,
82458732,000001A6,false,Rx,0,8,00,00,00,00,00,00,B4,F3,
82468727,000001D2,false,Rx,0,6,F0,0F,FF,7C,F0,FF,00,00,
82489709,000000A8,false,Rx,0,8,C6,0C,00,00,00,0F,03,00,
82492709,000000AA,false,Rx,0,8,BA,0C,00,00,FF,FF,04,00,
82493707,000000BE,false,Rx,0,5,0F,FF,FF,FF,FF,00,00,00,
82495706,000000C4,false,Rx,0,7,00,80,FD,00,80,FF,F6,00,
82497700,000000C8,false,Rx,0,6,00,80,FD,00,80,52,00,00,
82500701,000000CE,false,Rx,0,8,00,00,00,00,00,00,00,00,
82501701,0000019E,false,Rx,0,8,00,ED,E0,FC,F0,43,00,9F,
82503698,000001A0,false,Rx,0,8,00,80,01,E0,FE,F4,EF,E7,
82505697,00000130,false,Rx,0,5,00,02,34,3F,77,00,00,00,
82511694,000004E4,false,Rx,0,8,65,52,FF,01,FF,FF,FF,FF,
82515691,000000FD,false,Rx,0,3,FF,FF,FF,00,00,00,00,00,
82516690,000000FC,false,Rx,0,3,FF,FF,FF,00,00,00,00,00,
82551663,000001FC,false,Rx,0,2,A7,03,00,00,00,00,00,00,
82555660,000001D0,false,Rx,0,8,45,FF,40,C6,00,00,3D,00,
82558660,000001A6,false,Rx,0,8,00,00,00,00,00,00,44,F5,
82589636,000000A8,false,Rx,0,8,C1,07,00,00,00,0F,03,00,
82592633,000000AA,false,Rx,0,8,B5,07,00,00,FF,FF,04,00,
82600630,000000CE,false,Rx,0,8,00,00,00,00,00,00,00,00,
82604624,000001A0,false,Rx,0,8,00,80,01,E0,FE,F7,4F,4A,
82605624,00000130,false,Rx,0,5,00,02,34,3F,88,00,00,00,
82615617,000000FD,false,Rx,0,3,FF,FF,FF,00,00,00,00,00,
82616617,000004E5,false,Rx,0,8,67,52,FF,01,FF,FF,FF,FF,
82617616,000000FC,false,Rx,0,3,FF,FF,FF,00,00,00,00,00,
82641599,000000C0,false,Rx,0,2,F8,FF,00,00,00,00,00,00,
82649593,000005C0,false,Rx,0,8,04,00,32,FF,FF,FF,F4,FF,
82655589,000001D0,false,Rx,0,8,45,FF,41,C6,00,00,3D,00,
82659587,000001A6,false,Rx,0,8,00,00,00,00,00,00,D4,F6,
82668579,000001D2,false,Rx,0,6,F0,0F,FF,8C,F0,FF,00,00,
82669576,00000328,false,Rx,0,6,7A,AC,1D,00,16,20,00,00,
82689562,000000A8,false,Rx,0,8,BC,02,00,00,00,0F,03,00,
82692559,000000AA,false,Rx,0,8,B0,02,00,00,FF,FF,04,00,
82693561,000000BE,false,Rx,0,5,AF,FF,FF,FF,FF,00,00,00,
82695559,000000C4,false,Rx,0,7,00,80,FD,00,80,FF,F6,00,
82697558,000000C8,false,Rx,0,6,00,80,FD,00,80,72,00,00,
82700557,000000CE,false,Rx,0,8,00,00,00,00,00,00,00,00,
82702553,0000019E,false,Rx,0,8,00,ED,90,FC,F0,43,00,4F,
82703552,000001A0,false,Rx,0,8,00,80,FA,DF,FE,F7,9F,93,
82705554,000004E7,false,Rx,0,8,6D,52,FF,01,FF,FF,FF,FF,
82706551,00000130,false,Rx,0,5,00,02,34,3F,99,00,00,00,
82715544,000000FD,false,Rx,0,3,FF,FF,FF,00,00,00,00,00,
82716547,000000FC,false,Rx,0,3,FF,FF,FF,00,00,00,00,00,
82751518,000001FC,false,Rx,0,2,A8,03,00,00,00,00,00,00,
82755517,000001D0,false,Rx,0,8,45,FF,42,C6,00,00,3D,00,
82759515,000001A6,false,Rx,0,8,00,00,00,00,00,00,64,F8,
82789490,000000A8,false,Rx,0,8,C6,0C,00,00,00,0F,03,00,
82792491,000000AA,false,Rx,0,8,BA,0C,00,00,FF,FF,04,00,
82800485,000000CE,false,Rx,0,8,00,00,00,00,00,00,00,00,
82801484,000004ED,false,Rx,0,8,6E,52,FF,01,FF,FF,FF,FF,
82803479,000001A0,false,Rx,0,8,00,80,01,E0,FE,F4,EF,E7,
82805478,00000130,false,Rx,0,5,00,02,34,3F,BA,00,00,00,
82815472,000000FD,false,Rx,0,3,FF,FF,FF,00,00,00,00,00,
82816471,000000FC,false,Rx,0,3,FF,FF,FF,00,00,00,00,00,
82841455,000000C0,false,Rx,0,2,F9,FF,00,00,00,00,00,00,
82856442,000001D0,false,Rx,0,8,45,FF,43,C6,00,00,3D,00,
82859439,000001A6,false,Rx,0,8,00,00,00,00,00,00,F4,F9,
82868435,00000580,false,Rx,0,8,04,11,04,01,05,FF,00,F0,
82869431,000001D2,false,Rx,0,6,F0,0F,FF,9C,F0,FF,00,00,
82885418,000004EE,false,Rx,0,8,70,52,FF,01,FF,FF,FF,FF,
82890419,000000A8,false,Rx,0,8,C1,07,00,00,00,0F,03,00,
82892415,000000AA,false,Rx,0,8,B5,07,00,00,FF,FF,04,00,
82893415,000000BE,false,Rx,0,5,5F,FF,FF,FF,FF,00,00,00,
82895414,000000C4,false,Rx,0,7,00,80,FD,00,80,FF,F6,00,
82897412,000000C8,false,Rx,0,6,00,80,FD,00,80,92,00,00,
82900409,000000CE,false,Rx,0,8,00,00,00,00,00,00,00,00,
82902408,0000019E,false,Rx,0,8,00,ED,40,FC,F0,43,00,FE,
82903408,000001A0,false,Rx,0,8,00,80,01,E0,FE,F4,4F,47,
82905406,0000026E,false,Rx,0,8,00,00,00,50,FF,FF,FF,FF,
82906404,000001FE,false,Rx,0,2,FF,00,00,00,00,00,00,00,
82907405,00000130,false,Rx,0,5,00,02,34,3F,CB,00,00,00,
82909402,00000304,false,Rx,0,2,E3,FF,00,00,00,00,00,00,
82915399,000000FD,false,Rx,0,3,FF,FF,FF,00,00,00,00,00,
82916399,000000FC,false,Rx,0,3,FF,FF,FF,00,00,00,00,00,
82941379,000002CA,false,Rx,0,2,79,FF,00,00,00,00,00,00,
82951337,000001FC,false,Rx,0,2,A9,03,00,00,00,00,00,00,
82958366,000001D0,false,Rx,0,8,45,FF,44,C6,00,00,3D,00,
82960364,000001A6,false,Rx,0,8,00,00,00,00,00,00,84,FB,
82969359,000004F0,false,Rx,0,8,72,52,FF,01,00,30,84,00,
82979351,000001B6,false,Rx,0,7,FF,FF,3C,00,00,00,00,00,
82990344,000000A8,false,Rx,0,8,BC,02,00,00,00,0F,03,00,
82992281,000000AA,false,Rx,0,8,B0,02,00,00,FF,FF,04,00,
83000326,000000CE,false,Rx,0,8,00,00,00,00,00,00,00,00,
83004324,000001A0,false,Rx,0,8,00,80,01,E0,FE,F4,9F,97,
83005322,00000130,false,Rx,0,5,00,02,34,3F,DC,00,00,00,
83015291,000000FD,false,Rx,0,3,FF,FF,FF,00,00,00,00,00,
83016326,000000FC,false,Rx,0,3,FF,FF,FF,00,00,00,00,00,
83035311,000003BE,false,Rx,0,2,B3,F0,00,00,00,00,00,00,
83036308,000002A0,false,Rx,0,8,88,88,88,00,02,60,00,20,
83037310,000002FC,false,Rx,0,7,80,01,05,FF,FF,FF,FF,00,
83041307,000000C0,false,Rx,0,2,FA,FF,00,00,00,00,00,00,
83057233,000004F2,false,Rx,0,8,73,42,FF,01,00,00,00,00,
83059232,000001D0,false,Rx,0,8,45,FF,45,C6,00,00,3D,00,
83060228,000001A6,false,Rx,0,8,00,00,00,00,00,00,14,FD,
83061228,000001B5,false,Rx,0,6,FF,FF,02,00,08,FF,00,00,
83068305,000001D2,false,Rx,0,6,F0,0F,FF,AC,F0,FF,00,00,
83090270,000000A8,false,Rx,0,8,C6,0C,00,00,00,0F,03,00,
83092270,000000AA,false,Rx,0,8,BA,0C,00,00,FF,FF,04,00,
83093269,000000BE,false,Rx,0,5,0F,FF,FF,FF,FF,00,00,00,
83095213,000000C4,false,Rx,0,7,00,80,FD,00,80,FF,F6,00,
83097264,000000C8,false,Rx,0,6,00,80,FD,00,80,B2,00,00,
83100263,000000CE,false,Rx,0,8,00,00,00,00,00,00,00,00,
83102263,0000019E,false,Rx,0,8,00,ED,E0,FC,F0,43,00,9F,
83104260,000001A0,false,Rx,0,8,00,80,01,E0,FE,F7,EF,EA,
83105260,00000130,false,Rx,0,5,00,02,34,3F,ED,00,00,00,
83106259,000003BD,false,Rx,0,2,FD,FF,00,00,00,00,00,00,
83107226,000000E6,false,Rx,0,8,80,FF,E7,FC,FF,FF,FF,FF,
83108257,000000EE,false,Rx,0,8,80,FF,E7,FC,FF,FF,FF,FF,
83115252,000000FD,false,Rx,0,3,FF,FF,FF,00,00,00,00,00,
83116253,000000FC,false,Rx,0,3,FF,FF,FF,00,00,00,00,00,
83142232,000004F3,false,Rx,0,8,78,52,FF,01,FF,FF,FF,FF,
83151225,000001FC,false,Rx,0,2,AA,03,00,00,00,00,00,00,
83158221,000001D0,false,Rx,0,8,45,FF,46,C6,00,00,3D,00,
83159218,000001A6,false,Rx,0,8,02,00,00,00,00,00,A4,FE,
83189197,000000A8,false,Rx,0,8,C1,07,00,00,00,0F,03,00,
83192196,000000AA,false,Rx,0,8,B5,07,00,00,FF,FF,04,00,
83200193,000000CE,false,Rx,0,8,00,00,00,00,00,00,00,00,
83204188,000001A0,false,Rx,0,8,00,80,01,A0,FE,F4,4F,07,
83205186,00000130,false,Rx,0,5,00,02,34,3F,FE,00,00,00,
83215180,000000FD,false,Rx,0,3,FF,FF,FF,00,00,00,00,00,
83216181,000000FC,false,Rx,0,3,FF,FF,FF,00,00,00,00,00,
83225170,000005E7,false,Rx,0,8,01,01,AA,FF,FF,FF,FF,FF,
83232165,000004F8,false,Rx,0,8,00,52,FF,01,FF,FF,FF,FF,
83241162,000000C0,false,Rx,0,2,FB,FF,00,00,00,00,00,00,
83258149,000001D0,false,Rx,0,8,45,FF,47,C6,00,00,3D,00,
83260146,000001A6,false,Rx,0,8,02,00,00,00,00,00,34,F0,
83263111,000001D6,false,Rx,0,2,C0,00,00,00,00,00,00,00,
83264143,000001EA,false,Rx,0,2,F0,FF,00,00,00,00,00,00,
83265144,000001EE,false,Rx,0,2,00,FF,00,00,00,00,00,00,
83265162,000002A6,false,Rx,0,2,00,FC,00,00,00,00,00,00,
83268142,000001D2,false,Rx,0,6,F0,0F,FF,BC,F0,FF,00,00,
83289125,000000A8,false,Rx,0,8,BC,02,00,00,00,0F,03,00,
83292123,000000AA,false,Rx,0,8,B0,02,00,00,FF,FF,04,00,
83293120,000000BE,false,Rx,0,5,AF,FF,FF,FF,FF,00,00,00,
83295118,000000C4,false,Rx,0,7,00,80,FD,00,80,FF,F6,00,
83297120,000000C8,false,Rx,0,6,00,80,FD,00,80,D2,00,00,
83300117,000000CE,false,Rx,0,8,00,00,00,00,00,00,00,00,
83301117,0000019E,false,Rx,0,8,00,ED,90,FC,F0,43,00,4F,
83304115,000001A0,false,Rx,0,8,00,80,01,B0,FE,F2,9F,65,
83305114,00000130,false,Rx,0,5,00,02,34,3F,00,00,00,00,
83306111,00000480,false,Rx,0,8,40,42,FF,01,FF,FF,FF,FF,
83315106,000000FD,false,Rx,0,3,FF,FF,FF,00,00,00,00,00,
83316107,000000FC,false,Rx,0,3,FF,FF,FF,00,00,00,00,00,
83351078,000001FC,false,Rx,0,2,AB,03,00,00,00,00,00,00,
83358074,000001D0,false,Rx,0,8,45,FF,48,C6,00,00,3D,00,
83359074,000001A6,false,Rx,0,8,02,00,00,00,00,00,C4,F1,
83389051,000004C0,false,Rx,0,8,41,42,FF,01,00,01,FA,00,
83390053,000000A8,false,Rx,0,8,C6,0C,00,00,00,0F,03,00,
83392050,000000AA,false,Rx,0,8,BA,0C,00,00,FF,FF,04,00,
83400043,000000CE,false,Rx,0,8,00,00,00,00,00,00,00,00,
83404040,000001A0,false,Rx,0,8,00,80,01,D0,FE,F7,EF,DA,
83405041,00000130,false,Rx,0,5,00,02,34,3F,11,00,00,00,
83415032,000000FD,false,Rx,0,3,FF,FF,FF,00,00,00,00,00,
83416032,000000FC,false,Rx,0,3,FF,FF,FF,00,00,00,00,00,
83441014,000000C0,false,Rx,0,2,FC,FF,00,00,00,00,00,00,
83458003,000001A6,false,Rx,0,8,02,00,00,00,00,00,54,F3,
83460001,000001D0,false,Rx,0,8,45,FF,49,C6,00,00,3D,00,
83467996,000001D2,false,Rx,0,6,F0,0F,FF,CC,F0,FF,00,00,
83489981,000000A8,false,Rx,0,8,C1,07,00,00,00,0F,03,00,
83490981,000004C1,false,Rx,0,8,43,52,FE,01,FF,FF,FF,FF,
83491978,000000AA,false,Rx,0,8,B5,07,00,00,FF,FF,04,00,
83492980,000000BE,false,Rx,0,5,5F,FF,FF,FF,FF,00,00,00,
83494976,000000C4,false,Rx,0,7,00,80,FD,00,80,FF,F6,00,
83496974,000000C8,false,Rx,0,6,00,80,FD,00,80,F2,00,00,
83499974,000000CE,false,Rx,0,8,00,00,00,00,00,00,00,00,
83501973,0000019E,false,Rx,0,8,00,ED,40,FC,F0,43,00,FE,
83503969,000001A0,false,Rx,0,8,00,80,01,D0,FE,F2,4F,35,
83504970,00000130,false,Rx,0,5,00,02,34,3F,22,00,00,00,
83514961,000000FD,false,Rx,0,3,FF,FF,FF,00,00,00,00,00,
83515961,000000FC,false,Rx,0,3,FF,FF,FF,00,00,00,00,00,
83537948,00000341,false,Rx,0,2,BA,02,00,00,00,00,00,00,
83550936,000001FC,false,Rx,0,2,AC,03,00,00,00,00,00,00,
83558933,000001A6,false,Rx,0,8,02,00,00,00,00,00,E4,F4,
83559929,000001D0,false,Rx,0,8,45,FF,4A,C6,00,00,3D,00,
83588910,000004C3,false,Rx,0,8,44,52,FF,01,FF,FF,FF,FF,
83589907,000000A8,false,Rx,0,8,BC,02,00,00,00,0F,03,00,
83591910,000000AA,false,Rx,0,8,B0,02,00,00,FF,FF,04,00,
83599903,000000CE,false,Rx,0,8,00,00,00,00,00,00,00,00,
83603902,000001A0,false,Rx,0,8,00,80,01,D0,FE,F4,9F,87,
83604899,00000130,false,Rx,0,5,00,02,34,3F,33,00,00,00,
83614891,000000FD,false,Rx,0,3,FF,FF,FF,00,00,00,00,00,
83615890,000000FC,false,Rx,0,3,FF,FF,FF,00,00,00,00,00,
83640874,000000C0,false,Rx,0,2,FD,FF,00,00,00,00,00,00,
83657862,000001A6,false,Rx,0,8,02,00,00,00,00,00,74,F6,
83658864,000001D0,false,Rx,0,8,45,FF,4B,C6,00,00,3D,00,
83667854,000001D2,false,Rx,0,6,F0,0F,FF,DC,F0,FF,00,00,
83668855,00000328,false,Rx,0,6,7B,AC,1D,00,16,20,00,00,
83677848,000004C4,false,Rx,0,8,45,52,FF,01,FF,FF,FF,FF,
83689839,000000A8,false,Rx,0,8,C6,0C,00,00,00,0F,03,00,
83691840,000000AA,false,Rx,0,8,BA,0C,00,00,FF,FF,04,00,
83692836,000000BE,false,Rx,0,5,0F,FF,FF,FF,FF,00,00,00,
83694837,000000C4,false,Rx,0,7,00,80,FD,00,80,FF,F6,00,
83696834,000000C8,false,Rx,0,6,00,80,FD,00,80,12,00,00,
83699834,000000CE,false,Rx,0,8,00,00,00,00,00,00,00,00,
83701832,0000019E,false,Rx,0,8,00,ED,E0,FC,F0,43,00,9F,
83702830,000001A0,false,Rx,0,8,00,80,01,D0,FE,F2,EF,D5,
83704829,00000130,false,Rx,0,5,00,02,34,3F,44,00,00,00,
83714821,000000FD,false,Rx,0,3,FF,FF,FF,00,00,00,00,00,
83715823,000000FC,false,Rx,0,3,FF,FF,FF,00,00,00,00,00,
83750796,000001FC,false,Rx,0,2,AD,03,00,00,00,00,00,00,
83757791,000001A6,false,Rx,0,8,02,00,00,00,00,00,04,F8,
83759792,000001D0,false,Rx,0,8,45,FF,4C,C6,00,00,3D,00,
83766787,000004C5,false,Rx,0,8,60,52,FF,FF,FF,FF,FF,FF,
83789771,000000A8,false,Rx,0,8,C1,07,00,00,00,0F,03,00,
83791770,000000AA,false,Rx,0,8,B5,07,00,00,FF,FF,04,00,
83799762,000000CE,false,Rx,0,8,00,00,00,00,00,00,00,00,
83803761,000001A0,false,Rx,0,8,00,80,FA,DF,FE,F4,4F,40,
83804759,00000130,false,Rx,0,5,00,02,34,3F,55,00,00,00,
83814750,000000FD,false,Rx,0,3,FF,FF,FF,00,00,00,00,00,
83815752,000000FC,false,Rx,0,3,FF,FF,FF,00,00,00,00,00,
83840734,000000C0,false,Rx,0,2,FE,FF,00,00,00,00,00,00,
83850726,000001AA,false,Rx,0,8,F0,00,00,00,00,00,00,00,
83857721,000001A6,false,Rx,0,8,02,00,00,00,00,00,94,F9,
83858722,000001D0,false,Rx,0,8,45,FF,4D,C6,00,00,3D,00,
83861718,000004E0,false,Rx,0,8,62,52,FF,01,FF,FF,FF,FF,
83866715,000001B8,false,Rx,0,6,0F,C0,00,00,00,00,00,00,
83867717,000001D2,false,Rx,0,6,F0,0F,FF,EC,F0,FF,00,00,
83889700,000000A8,false,Rx,0,8,BC,02,00,00,00,0F,03,00,
83891697,000000AA,false,Rx,0,8,B0,02,00,00,FF,FF,04,00,
83892697,000000BE,false,Rx,0,5,AF,FF,FF,FF,FF,00,00,00,
83894698,000000C4,false,Rx,0,7,00,80,FD,00,80,FF,F6,00,
83897693,000000C8,false,Rx,0,6,00,80,FD,00,80,32,00,00,
83899693,000000CE,false,Rx,0,8,00,00,00,00,00,00,00,00,
83901692,0000019E,false,Rx,0,8,00,ED,90,FC,F0,43,00,4F,
83903689,000001A0,false,Rx,0,8,00,80,01,B0,FE,F7,9F,6A,
83904691,00000130,false,Rx,0,5,00,02,34,3F,66,00,00,00,
83905688,000001FE,false,Rx,0,2,FF,00,00,00,00,00,00,00,
83908686,00000304,false,Rx,0,2,E3,FF,00,00,00,00,00,00,
83914682,000000FD,false,Rx,0,3,FF,FF,FF,00,00,00,00,00,
83915680,000000FC,false,Rx,0,3,FF,FF,FF,00,00,00,00,00,
83941662,000002CA,false,Rx,0,2,79,FF,00,00,00,00,00,00,
83945660,000004E2,false,Rx,0,8,64,42,FF,01,FF,FF,FF,FF,
83950658,000001FC,false,Rx,0,2,AE,03,00,00,00,00,00,00,
83957650,000001A6,false,Rx,0,8,02,00,00,00,00,00,24,FB,
83959651,000001D0,false,Rx,0,8,45,FF,4E,C6,00,00,3D,00,
83977637,000001B6,false,Rx,0,7,FF,FF,3C,00,00,00,00,00,
83989630,000000A8,false,Rx,0,8,C6,0C,00,00,00,0F,03,00,
83991570,000000AA,false,Rx,0,8,BA,0C,00,00,FF,FF,04,00,
83999612,000000CE,false,Rx,0,8,00,00,00,00,00,00,00,00,
84003610,000001A0,false,Rx,0,8,00,80,01,D0,FE,F7,EF,DA,
84004609,00000130,false,Rx,0,5,00,02,34,3F,77,00,00,00,
84014611,000000FD,false,Rx,0,3,FF,FF,FF,00,00,00,00,00,
84015613,000000FC,false,Rx,0,3,FF,FF,FF,00,00,00,00,00,
84040593,000000C0,false,Rx,0,2,F0,FF,00,00,00,00,00,00,
84046589,000004E4,false,Rx,0,8,65,52,FF,01,FF,FF,FF,FF,
84057583,000001A6,false,Rx,0,8,02,00,00,00,00,00,B4,FC,
84058582,000001D0,false,Rx,0,8,45,FF,40,C6,00,00,3D,00,
84060525,000001B5,false,Rx,0,6,FF,FF,02,00,08,FF,00,00,
84067516,000001D2,false,Rx,0,6,F0,0F,FF,0C,F0,FF,00,00,
84089489,000000A8,false,Rx,0,8,C1,07,00,00,00,0F,03,00,
84091480,000000AA,false,Rx,0,8,B5,07,00,00,FF,FF,04,00,
84092483,000000BE,false,Rx,0,5,5F,FF,FF,FF,FF,00,00,00,
84094486,000000C4,false,Rx,0,7,00,80,FD,00,80,FF,F6,00,
84096480,000000C8,false,Rx,0,6,00,80,FD,00,80,52,00,00,
84099480,000000CE,false,Rx,0,8,00,00,00,00,00,00,00,00,
84101470,0000019E,false,Rx,0,8,00,ED,40,FC,F0,43,00,FE,
84103478,000001A0,false,Rx,0,8,00,80,FD,DF,FE,F7,4F,46,
84104465,00000130,false,Rx,0,5,00,02,34,3F,88,00,00,00,
84114472,000000FD,false,Rx,0,3,FF,FF,FF,00,00,00,00,00,
84115466,000000FC,false,Rx,0,3,FF,FF,FF,00,00,00,00,00,
84136460,000004E5,false,Rx,0,8,67,52,FF,01,FF,FF,FF,FF,
84150440,000001FC,false,Rx,0,2,A0,03,00,00,00,00,00,00,
84157436,000001A6,false,Rx,0,8,02,00,00,00,00,00,44,FE,
84158440,000001D0,false,Rx,0,8,45,FF,41,C6,00,00,3D,00,
84189418,000000A8,false,Rx,0,8,BC,02,00,00,00,0F,03,00,
84191411,000000AA,false,Rx,0,8,B0,02,00,00,FF,FF,04,00,
84199403,000000CE,false,Rx,0,8,00,00,00,00,00,00,00,00,
84203408,000001A0,false,Rx,0,8,00,80,01,B0,FE,F4,9F,67,
84204396,00000130,false,Rx,0,5,00,02,34,3F,99,00,00,00,
84214400,000000FD,false,Rx,0,3,FF,FF,FF,00,00,00,00,00,
84215397,000000FC,false,Rx,0,3,FF,FF,FF,00,00,00,00,00,
84226392,000004E7,false,Rx,0,8,6D,52,FF,01,FF,FF,FF,FF,
84240383,000000C0,false,Rx,0,2,F1,FF,00,00,00,00,00,00,
84257379,000001A6,false,Rx,0,8,02,00,00,00,00,00,D4,FF,
84258363,000001D0,false,Rx,0,8,45,FF,42,C6,00,00,3D,00,
84262366,000001D6,false,Rx,0,2,C0,00,00,00,00,00,00,00,
84262371,000001EA,false,Rx,0,2,F0,FF,00,00,00,00,00,00,
84263366,000001EE,false,Rx,0,2,00,FF,00,00,00,00,00,00,
84264354,000002A6,false,Rx,0,2,00,FC,00,00,00,00,00,00,
84267354,000001D2,false,Rx,0,6,F0,0F,FF,1C,F0,FF,00,00,
84289340,000000A8,false,Rx,0,8,C6,0C,00,00,00,0F,03,00,
84291335,000000AA,false,Rx,0,8,BA,0C,00,00,FF,FF,04,00,
84292337,000000BE,false,Rx,0,5,0F,FF,FF,FF,FF,00,00,00,
84294335,000000C4,false,Rx,0,7,00,80,FD,00,80,FF,F6,00,
84296345,000000C8,false,Rx,0,6,00,80,FD,00,80,72,00,00,
84299336,000000CE,false,Rx,0,8,00,00,00,00,00,00,00,00,
84301338,0000019E,false,Rx,0,8,00,ED,E0,FC,F0,43,00,9F,
84303333,000001A0,false,Rx,0,8,00,80,01,D0,FE,F7,EF,DA,
84304332,00000130,false,Rx,0,5,00,02,34,3F,BA,00,00,00,
84314327,000000FD,false,Rx,0,3,FF,FF,FF,00,00,00,00,00,
84315320,000000FC,false,Rx,0,3,FF,FF,FF,00,00,00,00,00,
84316319,000004ED,false,Rx,0,8,6E,52,FF,01,FF,FF,FF,FF,
84350312,000001FC,false,Rx,0,2,A1,03,00,00,00,00,00,00,
84357301,000001A6,false,Rx,0,8,02,00,00,00,00,00,64,F1,
84358292,000001D0,false,Rx,0,8,45,FF,43,C6,00,00,3D,00,
84389287,000000A8,false,Rx,0,8,C1,07,00,00,00,0F,03,00,
84391265,000000AA,false,Rx,0,8,B5,07,00,00,FF,FF,04,00,
84399268,000000CE,false,Rx,0,8,00,00,00,00,00,00,00,00,
84400257,000004EE,false,Rx,0,8,70,52,FF,01,FF,FF,FF,FF,
84403256,000001A0,false,Rx,0,8,00,80,01,D0,FE,F4,4F,37,
84404258,00000130,false,Rx,0,5,00,02,34,3F,CB,00,00,00,
84414254,000000FD,false,Rx,0,3,FF,FF,FF,00,00,00,00,00,
84415251,000000FC,false,Rx,0,3,FF,FF,FF,00,00,00,00,00,
84440245,000000C0,false,Rx,0,2,F2,FF,00,00,00,00,00,00,
84457231,000001A6,false,Rx,0,8,02,00,00,00,00,00,F4,F2,
84459224,000001D0,false,Rx,0,8,45,FF,44,C6,00,00,3D,00,
84467231,000001D2,false,Rx,0,6,F0,0F,FF,2C,F0,FF,00,00,
84489215,000000A8,false,Rx,0,8,BB,01,00,00,00,0F,03,00,
84491206,000000AA,false,Rx,0,8,B0,02,00,00,FF,FF,04,00,
84492207,000004F0,false,Rx,0,8,72,52,FF,01,00,30,84,00,
84493208,000000BE,false,Rx,0,5,AF,FF,FF,FF,FF,00,00,00,
84494194,000000C4,false,Rx,0,7,00,80,FD,00,80,FF,F6,00,
84496198,000000C8,false,Rx,0,6,00,80,FD,00,80,92,00,00,
84499194,000000CE,false,Rx,0,8,00,00,00,00,00,00,00,00,
84501195,0000019E,false,Rx,0,8,00,ED,90,FC,F0,43,00,4F,
84503199,000001A0,false,Rx,0,8,00,80,01,B0,FE,F4,9F,67,
84504187,00000130,false,Rx,0,5,00,02,34,3F,DC,00,00,00,
84514184,000000FD,false,Rx,0,3,FF,FF,FF,00,00,00,00,00,
84515181,000000FC,false,Rx,0,3,FF,FF,FF,00,00,00,00,00,
84550173,000001FC,false,Rx,0,2,A2,03,00,00,00,00,00,00,
84557157,000001A6,false,Rx,0,8,02,00,00,00,00,00,84,F4,
84559151,000001D0,false,Rx,0,8,45,FF,45,C6,00,00,3D,00,
84577151,000004F2,false,Rx,0,8,73,42,FF,01,00,00,00,00,
84589136,000000A8,false,Rx,0,8,C5,0B,00,00,00,0F,03,00,
84591135,000000AA,false,Rx,0,8,BA,0C,00,00,FF,FF,04,00,
84599138,000000CE,false,Rx,0,8,00,00,00,00,00,00,00,00,
84603131,000001A0,false,Rx,0,8,00,80,01,A0,FE,F4,EF,A7,
84604123,00000130,false,Rx,0,5,00,02,34,3F,ED,00,00,00,
84614128,000000FD,false,Rx,0,3,FF,FF,FF,00,00,00,00,00,
84615121,000000FC,false,Rx,0,3,FF,FF,FF,00,00,00,00,00,
84640104,000000C0,false,Rx,0,2,F3,FF,00,00,00,00,00,00,
84649096,000005C0,false,Rx,0,8,04,00,32,FF,FF,FF,F4,FF,
84657095,000001A6,false,Rx,0,8,02,00,00,00,00,00,14,F6,
84659095,000001D0,false,Rx,0,8,45,FF,46,C6,00,00,3D,00,
84661081,000004F3,false,Rx,0,8,78,52,FF,01,FF,FF,FF,FF,
84667086,000001D2,false,Rx,0,6,F0,0F,FF,3C,F0,FF,00,00,
84668082,00000328,false,Rx,0,6,7C,AC,1D,00,16,20,00,00,
84689077,000000A8,false,Rx,0,8,C0,06,00,00,00,0F,03,00,
84691073,000000AA,false,Rx,0,8,B5,07,00,00,FF,FF,04,00,
84692068,000000BE,false,Rx,0,5,5F,FF,FF,FF,FF,00,00,00,
84694062,000000C4,false,Rx,0,7,00,80,FD,00,80,FF,F6,00,
84696069,000000C8,false,Rx,0,6,00,80,FD,00,80,B2,00,00,
84699062,000000CE,false,Rx,0,8,00,00,00,00,00,00,00,00,
84701058,0000019E,false,Rx,0,8,00,ED,40,FC,F0,43,00,FE,
84703057,000001A0,false,Rx,0,8,00,80,01,D0,FE,F4,4F,37,
84704058,00000130,false,Rx,0,5,00,02,34,3F,FE,00,00,00,
84708060,00000130,false,Rx,0,5,80,0D,36,3F,70,00,00,00,
84714050,000000FD,false,Rx,0,3,FF,FF,FF,00,00,00,00,00,
84715053,000000FC,false,Rx,0,3,FF,FF,FF,00,00,00,00,00,
84750022,000001FC,false,Rx,0,2,A3,03,00,00,00,00,00,00,
84751024,000004F8,false,Rx,0,8,00,52,FF,01,FF,FF,FF,FF,
84757022,000001A6,false,Rx,0,8,02,00,00,00,00,00,A4,F7,
84759020,000001D0,false,Rx,0,8,45,FF,47,C6,00,00,3D,00,
84779014,00000205,false,Rx,0,2,F3,FF,00,00,00,00,00,00,
84789003,000000A8,false,Rx,0,8,BB,01,00,00,00,0F,03,00,
84790996,000000AA,false,Rx,0,8,B0,02,00,00,FF,FF,04,00,
84798993,000000CE,false,Rx,0,8,00,00,00,00,00,00,00,00,
84801987,00000338,false,Rx,0,8,0D,00,02,F0,00,FE,FE,FE,
84802987,000001A0,false,Rx,0,8,00,80,01,D0,FE,F4,9F,87,
84803987,00000130,false,Rx,0,5,80,0D,36,3F,81,00,00,00,
84804987,00000336,false,Rx,0,7,00,0D,00,FE,FF,FE,FF,00,
84813985,000000FD,false,Rx,0,3,FF,FF,FF,00,00,00,00,00,
84815008,000000FC,false,Rx,0,3,FF,FF,FF,00,00,00,00,00,
84824972,00000480,false,Rx,0,8,40,42,FF,01,FF,FF,FF,FF,
84839972,000000C0,false,Rx,0,2,F4,FF,00,00,00,00,00,00,
84849966,000000EA,false,Rx,0,8,8F,FF,E0,FD,FF,FF,FF,2B,
84851963,00000172,false,Rx,0,5,FF,FF,FF,FF,F3,00,00,00,
84856961,000001A6,false,Rx,0,8,02,00,00,00,00,00,34,F9,
84859959,000001D0,false,Rx,0,8,45,FF,48,C6,00,00,3D,00,
84866954,00000580,false,Rx,0,8,04,11,04,01,05,FF,00,F0,
84867940,000001D2,false,Rx,0,6,F0,0F,FF,4C,F0,FF,00,00,
84888938,000000A8,false,Rx,0,8,C5,0B,00,00,00,0F,03,00,
84890938,000000AA,false,Rx,0,8,BA,0C,00,00,FF,FF,04,00,
84891925,000000BE,false,Rx,0,5,0F,FF,FF,FF,FF,00,00,00,
84894925,000000C4,false,Rx,0,7,00,80,FD,00,80,FF,F6,00,
84896921,000000C8,false,Rx,0,6,00,80,FD,00,80,D2,00,00,
84898921,000000CE,false,Rx,0,8,00,00,00,00,00,00,00,00,
84900930,0000019E,false,Rx,0,8,00,ED,E0,FC,F0,43,00,9F,
84902916,000001A0,false,Rx,0,8,00,80,FF,DF,FE,F7,EF,E8,
84903927,0000026E,false,Rx,0,8,00,00,00,50,FF,FF,FF,FF,
84904915,000001FE,false,Rx,0,2,FF,00,00,00,00,00,00,00,
84905914,00000130,false,Rx,0,5,80,0D,36,3F,92,00,00,00,
84906914,000002FA,false,Rx,0,5,FC,04,FF,FF,FF,00,00,00,
84907924,00000304,false,Rx,0,2,E3,FF,00,00,00,00,00,00,
84908924,000004C0,false,Rx,0,8,41,42,FF,01,00,01,FA,00,
84909923,000000E2,false,Rx,0,8,FF,FF,E7,FC,FF,FF,FF,10,
84913910,000000FD,false,Rx,0,3,FF,FF,FF,00,00,00,00,00,
84914910,000000FC,false,Rx,0,3,FF,FF,FF,00,00,00,00,00,
84940899,00000330,false,Rx,0,8,4A,AA,03,0A,00,15,80,05,
84941900,000002CA,false,Rx,0,2,79,FF,00,00,00,00,00,00,
84949891,000001FC,false,Rx,0,2,A4,03,00,00,00,00,00,00,
84956887,000001A6,false,Rx,0,8,02,00,00,00,00,00,C4,FA,
84959885,000001D0,false,Rx,0,8,45,FF,49,C6,00,00,3D,00,
84979878,000001B6,false,Rx,0,7,FF,FF,3C,00,00,00,00,00,
84988872,000000A8,false,Rx,0,8,C0,06,00,00,00,0F,03,00,
84990870,000000AA,false,Rx,0,8,B5,07,00,00,FF,FF,04,00,
84992860,000004C1,false,Rx,0,8,43,52,FE,01,FF,FF,FF,FF,
84998859,000000CE,false,Rx,0,8,00,00,00,00,00,00,00,00,
85002849,000001A0,false,Rx,0,8,00,80,01,D0,FE,F4,4F,37,
85003856,00000130,false,Rx,0,5,80,0D,36,3F,A3,00,00,00,
85013845,000000FD,false,Rx,0,3,FF,FF,FF,00,00,00,00,00,
85014842,000000FC,false,Rx,0,3,FF,FF,FF,00,00,00,00,00,
85039837,000000C0,false,Rx,0,2,F5,FF,00,00,00,00,00,00,
85047824,000003BE,false,Rx,0,2,B2,F0,00,00,00,00,00,00,
85056830,000001A6,false,Rx,0,8,02,00,00,00,00,00,54,FC,
85057860,0000031D,false,Rx,0,2,00,FE,00,00,00,00,00,00,
85059822,000001D0,false,Rx,0,8,45,FF,4A,C6,00,00,3D,00,
85060817,000001B5,false,Rx,0,6,FF,FF,02,00,08,FF,00,00,
85066820,000001D2,false,Rx,0,6,F0,0F,FF,5C,F0,FF,00,00,
85070811,000005F8,false,Rx,0,8,08,06,00,FE,FF,FF,FF,FF,
85088811,000000A8,false,Rx,0,8,BB,01,00,00,00,0F,03,00,
85090791,000000AA,false,Rx,0,8,AF,01,00,00,FF,FF,04,00,
85091790,000000BE,false,Rx,0,5,AF,FF,FF,FF,FF,00,00,00,
85093795,000004C3,false,Rx,0,8,44,52,FF,01,FF,FF,FF,FF,
85095800,000000C4,false,Rx,0,7,00,80,FD,00,80,FF,F6,00,
85096793,000000C8,false,Rx,0,6,00,80,FD,00,80,F2,00,00,
85098791,000000CE,false,Rx,0,8,00,00,00,00,00,00,00,00,
85100796,0000019E,false,Rx,0,8,00,ED,90,FC,F0,43,00,4F,
85102794,000001A0,false,Rx,0,8,00,80,01,B0,FE,F7,9F,6A,
85103787,00000130,false,Rx,0,5,80,0D,36,3F,B4,00,00,00,
85113779,000000FD,false,Rx,0,3,FF,FF,FF,00,00,00,00,00,
85114776,000000FC,false,Rx,0,3,FF,FF,FF,00,00,00,00,00,
85148775,00000130,false,Rx,0,5,00,0D,34,3F,15,00,00,00,
85149758,000001FC,false,Rx,0,2,A5,03,00,00,00,00,00,00,
85156755,000001A6,false,Rx,0,8,02,00,00,00,00,00,E4,FD,
85159753,000001D0,false,Rx,0,8,45,FF,4B,C6,00,00,3D,00,
85176752,000004C4,false,Rx,0,8,45,52,FF,01,FF,FF,FF,FF,
85188739,000000A8,false,Rx,0,8,C5,0B,00,00,00,0F,03,00,
85190736,000000AA,false,Rx,0,8,B9,0B,00,00,FF,FF,04,00,
85198726,000000CE,false,Rx,0,8,00,00,00,00,00,00,00,00,
85202721,000001A0,false,Rx,0,8,00,80,01,B0,FE,F4,EF,B7,
85203714,00000130,false,Rx,0,5,00,0D,34,3F,26,00,00,00,
85211726,000003B3,false,Rx,0,6,F1,FF,FF,7F,00,F1,00,00,
85212716,00000592,false,Rx,0,8,01,03,95,FF,FF,FF,FF,FF,
85213712,000000FD,false,Rx,0,3,FF,FF,FF,00,00,00,00,00,
85214715,00000395,false,Rx,0,5,0A,08,50,64,FF,00,00,00,
85215718,000000FC,false,Rx,0,3,FF,FF,FF,00,00,00,00,00,
85239706,000000C0,false,Rx,0,2,F6,FF,00,00,00,00,00,00,
85252700,00000130,false,Rx,0,5,40,42,36,3F,37,00,00,00,
85257684,000001A6,false,Rx,0,8,02,00,00,00,00,00,74,FF,
85260682,000001D0,false,Rx,0,8,45,FF,4C,C6,00,00,3D,00,
85261686,000001D6,false,Rx,0,2,C0,00,00,00,00,00,00,00,
85261691,000001EA,false,Rx,0,2,F0,FF,00,00,00,00,00,00,
85262684,000001EE,false,Rx,0,2,00,FF,00,00,00,00,00,00,
85263679,000002A6,false,Rx,0,2,00,FC,00,00,00,00,00,00,
85265678,000004C5,false,Rx,0,8,60,52,FF,FF,FF,FF,FF,FF,
85266682,000001D2,false,Rx,0,6,F0,0F,FF,6C,F0,FF,00,00,
85276681,00000205,false,Rx,0,2,F4,FF,00,00,00,00,00,00,
85288662,000000A8,false,Rx,0,8,C0,06,00,00,00,0F,03,00,
85290655,000000AA,false,Rx,0,8,B4,06,00,00,FF,FF,04,00,
85291660,000000BE,false,Rx,0,5,5F,FF,FF,FF,FF,00,00,00,
